CITIFILE A.01.01
#Momentum: B.12.00.024 (*) built: Jan 14 2016 
#Momentum Date and Time: Wed Dec 06 16:48:02 2017

NAME Momentum.SP

#  mode: MW    project: proj    reference: S_50

#eesof Port[1] P1
#eesof Port[2] P2
#eesof Port[3] P3
#eesof Port[4] P4
#eesof Port[5] P5
#eesof Port[6] P11
#eesof Port[7] P12
#eesof Port[8] P19
#eesof Port[9] P20

CONSTANT NBR_OF_PORTS 9

CONSTANT NORMALIZATION 1

VAR freq MAG 10

DATA S[1,1] RI
DATA S[1,2] RI
DATA S[1,3] RI
DATA S[1,4] RI
DATA S[1,5] RI
DATA S[1,6] RI
DATA S[1,7] RI
DATA S[1,8] RI
DATA S[1,9] RI
DATA S[2,1] RI
DATA S[2,2] RI
DATA S[2,3] RI
DATA S[2,4] RI
DATA S[2,5] RI
DATA S[2,6] RI
DATA S[2,7] RI
DATA S[2,8] RI
DATA S[2,9] RI
DATA S[3,1] RI
DATA S[3,2] RI
DATA S[3,3] RI
DATA S[3,4] RI
DATA S[3,5] RI
DATA S[3,6] RI
DATA S[3,7] RI
DATA S[3,8] RI
DATA S[3,9] RI
DATA S[4,1] RI
DATA S[4,2] RI
DATA S[4,3] RI
DATA S[4,4] RI
DATA S[4,5] RI
DATA S[4,6] RI
DATA S[4,7] RI
DATA S[4,8] RI
DATA S[4,9] RI
DATA S[5,1] RI
DATA S[5,2] RI
DATA S[5,3] RI
DATA S[5,4] RI
DATA S[5,5] RI
DATA S[5,6] RI
DATA S[5,7] RI
DATA S[5,8] RI
DATA S[5,9] RI
DATA S[6,1] RI
DATA S[6,2] RI
DATA S[6,3] RI
DATA S[6,4] RI
DATA S[6,5] RI
DATA S[6,6] RI
DATA S[6,7] RI
DATA S[6,8] RI
DATA S[6,9] RI
DATA S[7,1] RI
DATA S[7,2] RI
DATA S[7,3] RI
DATA S[7,4] RI
DATA S[7,5] RI
DATA S[7,6] RI
DATA S[7,7] RI
DATA S[7,8] RI
DATA S[7,9] RI
DATA S[8,1] RI
DATA S[8,2] RI
DATA S[8,3] RI
DATA S[8,4] RI
DATA S[8,5] RI
DATA S[8,6] RI
DATA S[8,7] RI
DATA S[8,8] RI
DATA S[8,9] RI
DATA S[9,1] RI
DATA S[9,2] RI
DATA S[9,3] RI
DATA S[9,4] RI
DATA S[9,5] RI
DATA S[9,6] RI
DATA S[9,7] RI
DATA S[9,8] RI
DATA S[9,9] RI
DATA PORTZ[1] RI
DATA PORTZ[2] RI
DATA PORTZ[3] RI
DATA PORTZ[4] RI
DATA PORTZ[5] RI
DATA PORTZ[6] RI
DATA PORTZ[7] RI
DATA PORTZ[8] RI
DATA PORTZ[9] RI

VAR_LIST_BEGIN
	 400000000
	 522222222.2
	 827777777.6
	 980555555.3
	 1133333333
	 1622222222
	 1866666667
	 2355555556
	 2518518519
	 2600000000
VAR_LIST_END

BEGIN
	-0.402620678,	 0.262701262
	-0.32473853,	 0.263048899
	-0.244111583,	 0.187525664
	-0.258873082,	 0.163219647
	-0.286902734,	 0.165703372
	-0.313799045,	 0.292952824
	-0.269287877,	 0.357619917
	-0.179663342,	 0.38456282
	-0.193887334,	 0.38818835
	-0.210471698,	 0.403303454
END
BEGIN
	 -2.8190142e-005 ,	 -0.000198213779 
	 -7.34907851e-005 ,	 -0.000277281915 
	 -0.000318573968 ,	 -0.000437845057 
	 -0.000500275238 ,	 -0.000461154479 
	 -0.000703237481 ,	 -0.00043069814 
	 -0.00134341609 ,	 6.89880774e-005 
	 -0.0015658629 ,	 0.000572930813 
	 -0.00128522056 ,	 0.00212241721 
	 -0.000743103017 ,	 0.00263462266 
	 -0.000372686089 ,	 0.00280218736 
END
BEGIN
	 0.258152148,	-0.253144143
	 0.184690211,	-0.283382034
	 0.0291120414,	-0.270414036
	-0.0191648952,	-0.24007517
	-0.0492286184,	-0.208397918
	-0.084373944,	-0.147266184
	-0.100680675,	-0.142720911
	-0.206466999,	-0.136781257
	-0.271243338,	-0.0990379964
	-0.302895214,	-0.0634379845
END
BEGIN
	 0.2548698,	-0.256694745
	 0.179875403,	-0.286807184
	 0.0216709514,	-0.271734514
	-0.0271161375,	-0.240093432
	-0.0573556863,	-0.20727918
	-0.0931435624,	-0.143669961
	-0.11077267,	-0.137587979
	-0.220435897,	-0.121855712
	-0.284067112,	-0.0769707032
	-0.313578343,	-0.0372761068
END
BEGIN
	 0.258152148,	-0.253144143
	 0.184690211,	-0.283382034
	 0.0291120414,	-0.270414036
	-0.0191648952,	-0.24007517
	-0.0492286184,	-0.208397918
	-0.084373944,	-0.147266184
	-0.100680675,	-0.142720911
	-0.206466999,	-0.136781257
	-0.271243338,	-0.0990379964
	-0.302895214,	-0.0634379845
END
BEGIN
	 0.609164845,	-0.00711184225
	 0.680609173,	-0.111234113
	 0.66980046,	-0.475518438
	 0.561290282,	-0.638537345
	 0.410113804,	-0.757597915
	-0.145450795,	-0.833153001
	-0.396973484,	-0.730758844
	-0.732275486,	-0.271331671
	-0.726090034,	-0.057081753
	-0.685649229,	 0.0427444462
END
BEGIN
	 4.85741518e-005 ,	 0.000617385809 
	 0.000184291994 ,	 0.000869628758 
	 0.000918962514 ,	 0.00131371421 
	 0.00140971812 ,	 0.00132232144 
	 0.00189693832 ,	 0.0011703203 
	 0.00297802117 ,	 -0.000128162029 
	 0.00309914201 ,	 -0.00107298199 
	 0.00199195438 ,	 -0.00300836052 
	 0.00113061272 ,	 -0.00328227991 
	 0.00067187471 ,	 -0.00323977873 
END
BEGIN
	 -0.00031480003 ,	 -7.08112779e-005 
	 -0.000492653716 ,	 2.91025647e-005 
	 -0.000851118145 ,	 0.000612761681 
	 -0.000896913736 ,	 0.00103334143 
	 -0.000829706977 ,	 0.00148468309 
	 -5.81458486e-007 ,	 0.0028365681 
	 0.000660420298 ,	 0.00345913858 
	 0.00297160121 ,	 0.00501516773 
	 0.00455480328,	 0.00547929016
	 0.0055987018,	 0.00553317156
END
BEGIN
	 -0.000359620761 ,	 -0.000160599431 
	 -0.000557029315 ,	 -7.12030077e-005 
	 -0.000943144288 ,	 0.000504350942 
	 -0.000991734521 ,	 0.000919318379 
	 -0.000924157606 ,	 0.00136013981 
	 -9.36077879e-005 ,	 0.00265453234 
	 0.000577239905 ,	 0.00323959804 
	 0.00299067538 ,	 0.00458702489 
	 0.00459441794 ,	 0.00485330646 
	 0.00561392695,	 0.00477138209
END
BEGIN
	 -2.8190142e-005 ,	 -0.000198213779 
	 -7.34907851e-005 ,	 -0.000277281915 
	 -0.000318573968 ,	 -0.000437845057 
	 -0.000500275238 ,	 -0.000461154479 
	 -0.000703237481 ,	 -0.00043069814 
	 -0.00134341609 ,	 6.89880774e-005 
	 -0.0015658629 ,	 0.000572930813 
	 -0.00128522056 ,	 0.00212241721 
	 -0.000743103017 ,	 0.00263462266 
	 -0.000372686089 ,	 0.00280218736 
END
BEGIN
	 -0.000317591187 ,	 -0.0051322042 
	 -0.000581557359 ,	 -0.00667605754 
	-0.00153410449,	-0.0104530418
	-0.00216103583,	-0.0122842186
	-0.00288424471,	-0.0140687662
	-0.00580596392,	-0.0193992642
	-0.00758663628,	-0.0218096386
	-0.0117010949,	-0.0260207315
	-0.0132146202,	-0.0272209326
	-0.0139938887,	-0.0277785985
END
BEGIN
	 -5.7678078e-005 ,	 -2.016244e-005 
	 -8.57767938e-005 ,	 -4.54353265e-006 
	 -0.000135919565 ,	 7.4559031e-005 
	 -0.000144134835 ,	 0.000124889991 
	 -0.000142040335 ,	 0.000176692789 
	 -8.03869943e-005 ,	 0.000350375925 
	 4.98222006e-008 ,	 0.000455026195 
	 0.000510636353 ,	 0.000596261715 
	 0.000843790721 ,	 0.000439265335 
	 0.00100917604 ,	 0.000259952865 
END
BEGIN
	 -5.52582209e-005 ,	 3.84610807e-005 
	 -8.13956522e-005 ,	 7.25554582e-005 
	 -0.000122852356 ,	 0.000198731967 
	 -0.000124489538 ,	 0.000272751449 
	 -0.000114267222 ,	 0.000348178837 
	 -1.46588986e-005 ,	 0.000595869035 
	 9.37023074e-005 ,	 0.000734310743 
	 0.000677628583 ,	 0.000909503396 
	 0.00102618562 ,	 0.000741993404 
	 0.0011908442 ,	 0.000553957222 
END
BEGIN
	 -5.7678078e-005 ,	 -2.016244e-005 
	 -8.57767938e-005 ,	 -4.54353265e-006 
	 -0.000135919565 ,	 7.4559031e-005 
	 -0.000144134835 ,	 0.000124889991 
	 -0.000142040335 ,	 0.000176692789 
	 -8.03869943e-005 ,	 0.000350375925 
	 4.98222006e-008 ,	 0.000455026195 
	 0.000510636353 ,	 0.000596261715 
	 0.000843790721 ,	 0.000439265335 
	 0.00100917604 ,	 0.000259952865 
END
BEGIN
	 0.000142671046 ,	 0.000944335187 
	 0.000207789573 ,	 0.00119190286 
	 0.000334539886 ,	 0.00179078495 
	 0.000389064363 ,	 0.00211708529 
	 0.0004600684 ,	 0.00247471232 
	 0.00101001766 ,	 0.003762077 
	 0.00157060998 ,	 0.00435673484 
	 0.00310376295 ,	 0.00469390062 
	 0.00337417297 ,	 0.00443382548 
	 0.00336452767 ,	 0.00430959875 
END
BEGIN
	 0.99725406309023179 ,	 -0.069695348790563064 
	 0.99547146048945834 ,	 -0.090877333477907926 
	 0.989052549,	-0.14359191
	 0.984794859,	-0.169788834
	 0.979841742,	-0.195855816
	 0.959359597,	-0.278193065
	 0.946503275,	-0.318617604
	 0.915671718,	-0.397619835
	 0.903908197,	-0.423328246
	 0.897752947,	-0.436052867
END
BEGIN
	 -2.15846305e-005 ,	 -1.1925204e-006 
	 -3.63123878e-005 ,	 2.00799549e-006 
	 -8.71396352e-005 ,	 2.33241492e-005 
	 -0.000118581983 ,	 4.31301393e-005 
	 -0.000152784495 ,	 7.02804988e-005 
	 -0.000267214603 ,	 0.000214644637 
	 -0.000317498423 ,	 0.000322724802 
	 -0.000377759313 ,	 0.000610038776 
	 -0.000382360269 ,	 0.00072621289 
	 -0.000381455671 ,	 0.000788731073 
END
BEGIN
	 -2.21981886e-005 ,	 1.05106297e-005 
	 -3.73624739e-005 ,	 1.74251611e-005 
	 -8.97296425e-005 ,	 4.85438237e-005 
	 -0.000122154709 ,	 7.3615743e-005 
	 -0.000157459246 ,	 0.000106338449 
	 -0.000275958752 ,	 0.000271173238 
	 -0.000328396415 ,	 0.000391395726 
	 -0.000392534402 ,	 0.000708481136 
	 -0.000397812097 ,	 0.000836926627 
	 -0.0003968858 ,	 0.00090613739 
END
BEGIN
	 0.258152148,	-0.253144143
	 0.184690211,	-0.283382034
	 0.0291120414,	-0.270414036
	-0.0191648952,	-0.24007517
	-0.0492286184,	-0.208397918
	-0.084373944,	-0.147266184
	-0.100680675,	-0.142720911
	-0.206466999,	-0.136781257
	-0.271243338,	-0.0990379964
	-0.302895214,	-0.0634379845
END
BEGIN
	 -5.7678078e-005 ,	 -2.016244e-005 
	 -8.57767938e-005 ,	 -4.54353265e-006 
	 -0.000135919565 ,	 7.4559031e-005 
	 -0.000144134835 ,	 0.000124889991 
	 -0.000142040335 ,	 0.000176692789 
	 -8.03869943e-005 ,	 0.000350375925 
	 4.98222006e-008 ,	 0.000455026195 
	 0.000510636353 ,	 0.000596261715 
	 0.000843790721 ,	 0.000439265335 
	 0.00100917604 ,	 0.000259952865 
END
BEGIN
	-0.546980596,	 0.0754429742
	-0.517041565,	 0.081834578
	-0.445458215,	 0.0567031055
	-0.420379883,	 0.0279245178
	-0.405005045,	-0.00633693159
	-0.416731347,	-0.121509429
	-0.454104844,	-0.170767753
	-0.595861111,	-0.206518568
	-0.6532974,	-0.172944701
	-0.675661297,	-0.142661042
END
BEGIN
	 0.454135065,	 0.069357115
	 0.484608926,	 0.073392658
	 0.556861814,	 0.041377048
	 0.581682704,	 0.00890580572
	 0.596371568,	-0.0290009371
	 0.580051665,	-0.154152612
	 0.539435073,	-0.206624031
	 0.392836818,	-0.241747242
	 0.337074853,	-0.205559392
	 0.316927392,	-0.174058995
END
BEGIN
	 0.453019403,	 0.0754429742
	 0.482958434,	 0.081834578
	 0.554541784,	 0.0567031055
	 0.579620116,	 0.0279245178
	 0.594994954,	-0.00633693159
	 0.583268652,	-0.121509429
	 0.545895155,	-0.170767753
	 0.404138888,	-0.206518568
	 0.346702599,	-0.172944701
	 0.324338702,	-0.142661042
END
BEGIN
	 0.220409475,	-0.302674787
	 0.124850723,	-0.336607018
	-0.0874568644,	-0.302341306
	-0.158737244,	-0.247508042
	-0.206094934,	-0.184587854
	-0.2521598,	 0.0132202224
	-0.237363052,	 0.110141165
	-0.0808562074,	 0.325820332
	 0.0526876039,	 0.372512788
	 0.138024404,	 0.371557669
END
BEGIN
	 0.00024661792 ,	 0.000208109788 
	 0.000357816322 ,	 0.000170772086 
	 0.000513250202 ,	 -8.34368346e-005 
	 0.000504027726 ,	 -0.000240862085 
	 0.000445183188 ,	 -0.000390461815 
	 1.44277275e-005 ,	 -0.000758721393 
	 -0.000348135987 ,	 -0.000866466718 
	 -0.00155118769 ,	 -0.000538021288 
	 -0.00199408303 ,	 2.05446012e-005 
	 -0.00212845583 ,	 0.000433414219 
END
BEGIN
	 -9.29410225e-005 ,	 0.000164570346 
	 -0.000151782808 ,	 0.000225205562 
	 -0.000373560319 ,	 0.000388657403 
	 -0.000542776862 ,	 0.000488348539 
	 -0.000758883863 ,	 0.000620315366 
	 -0.00169059201 ,	 0.00149488351 
	 -0.0021521011 ,	 0.0023349951 
	 -0.00207906118 ,	 0.00498565651 
	 -0.00134627965 ,	 0.00586950506 
	 -0.000815663387 ,	 0.00615615202 
END
BEGIN
	 -6.99868606e-005 ,	 8.65576787e-005 
	 -0.000117026875 ,	 0.000114342824 
	 -0.000316809337 ,	 0.000178419288 
	 -0.000481192777 ,	 0.000223832293 
	 -0.000695426116 ,	 0.000301123188 
	 -0.00161661507 ,	 0.000998151701 
	 -0.00205426196 ,	 0.00173216107 
	 -0.00190179199 ,	 0.00399108133 
	 -0.00119833017 ,	 0.0046339882 
	 -0.000722228522 ,	 0.00478053554 
END
BEGIN
	 0.2548698,	-0.256694745
	 0.179875403,	-0.286807184
	 0.0216709514,	-0.271734514
	-0.0271161375,	-0.240093432
	-0.0573556863,	-0.20727918
	-0.0931435624,	-0.143669961
	-0.11077267,	-0.137587979
	-0.220435897,	-0.121855712
	-0.284067112,	-0.0769707032
	-0.313578343,	-0.0372761068
END
BEGIN
	 -5.52582209e-005 ,	 3.84610807e-005 
	 -8.13956522e-005 ,	 7.25554582e-005 
	 -0.000122852356 ,	 0.000198731967 
	 -0.000124489538 ,	 0.000272751449 
	 -0.000114267222 ,	 0.000348178837 
	 -1.46588986e-005 ,	 0.000595869035 
	 9.37023074e-005 ,	 0.000734310743 
	 0.000677628583 ,	 0.000909503396 
	 0.00102618562 ,	 0.000741993404 
	 0.0011908442 ,	 0.000553957222 
END
BEGIN
	 0.454135065,	 0.069357115
	 0.484608926,	 0.073392658
	 0.556861814,	 0.041377048
	 0.581682704,	 0.00890580572
	 0.596371568,	-0.0290009371
	 0.580051665,	-0.154152612
	 0.539435073,	-0.206624031
	 0.392836818,	-0.241747242
	 0.337074853,	-0.205559392
	 0.316927392,	-0.174058995
END
BEGIN
	-0.544327806,	 0.0900167271
	-0.51311054,	 0.0998383279
	-0.43949411,	 0.0812873716
	-0.414491026,	 0.0553108535
	-0.399982141,	 0.023965338
	-0.418752752,	-0.0783096774
	-0.461164528,	-0.117423837
	-0.608496437,	-0.118601096
	-0.660716497,	-0.0688682659
	-0.677639639,	-0.0308058016
END
BEGIN
	 0.454135065,	 0.069357115
	 0.484608926,	 0.073392658
	 0.556861814,	 0.041377048
	 0.581682704,	 0.00890580572
	 0.596371568,	-0.0290009371
	 0.580051665,	-0.154152612
	 0.539435073,	-0.206624031
	 0.392836818,	-0.241747242
	 0.337074853,	-0.205559392
	 0.316927392,	-0.174058995
END
BEGIN
	 0.216489418,	-0.305599188
	 0.119131659,	-0.338846009
	-0.0958313089,	-0.300239644
	-0.167066135,	-0.242689468
	-0.213562112,	-0.177146642
	-0.252784636,	 0.027282187
	-0.23210345,	 0.126226158
	-0.0554390268,	 0.336678715
	 0.0858174809,	 0.373598168
	 0.17352302,	 0.365230828
END
BEGIN
	 0.000246206279 ,	 0.000147085177 
	 0.000355578914 ,	 8.91490367e-005 
	 0.000498580613 ,	 -0.00021774406 
	 0.000478927576 ,	 -0.000400394196 
	 0.000407334909 ,	 -0.000573697801 
	 -7.68401627e-005 ,	 -0.00100404566 
	 -0.000472110357 ,	 -0.00113034329 
	 -0.00172258206 ,	 -0.000781781527 
	 -0.00214672326 ,	 -0.000198273817 
	 -0.00225741866 ,	 0.000223692191 
END
BEGIN
	 -8.89494872e-005 ,	 0.000188872556 
	 -0.000144982472 ,	 0.000257301231 
	 -0.000356767558 ,	 0.000441963639 
	 -0.000519308809 ,	 0.000554186826 
	 -0.000727011501 ,	 0.000700889324 
	 -0.00160592498 ,	 0.00164230135 
	 -0.00201171971 ,	 0.00252438526 
	 -0.00171754459 ,	 0.00520785655 
	 -0.000887527219 ,	 0.00604203202 
	 -0.000316387908 ,	 0.00628409125 
END
BEGIN
	 -5.69283411e-005 ,	 0.00046730173 
	 -9.56789553e-005 ,	 0.000611408758 
	 -0.000266444674 ,	 0.000967630672 
	 -0.000411777774 ,	 0.00116099805 
	 -0.000603256368 ,	 0.00138846408 
	 -0.00141212012 ,	 0.00258503202 
	 -0.00175715869 ,	 0.00357567659 
	 -0.00130742452 ,	 0.00628969287 
	 -0.00048788177 ,	 0.00702546357 
	 3.59994029e-005 ,	 0.00720172163 
END
BEGIN
	 0.258152148,	-0.253144143
	 0.184690211,	-0.283382034
	 0.0291120414,	-0.270414036
	-0.0191648952,	-0.24007517
	-0.0492286184,	-0.208397918
	-0.084373944,	-0.147266184
	-0.100680675,	-0.142720911
	-0.206466999,	-0.136781257
	-0.271243338,	-0.0990379964
	-0.302895214,	-0.0634379845
END
BEGIN
	 -5.7678078e-005 ,	 -2.016244e-005 
	 -8.57767938e-005 ,	 -4.54353265e-006 
	 -0.000135919565 ,	 7.4559031e-005 
	 -0.000144134835 ,	 0.000124889991 
	 -0.000142040335 ,	 0.000176692789 
	 -8.03869943e-005 ,	 0.000350375925 
	 4.98222006e-008 ,	 0.000455026195 
	 0.000510636353 ,	 0.000596261715 
	 0.000843790721 ,	 0.000439265335 
	 0.00100917604 ,	 0.000259952865 
END
BEGIN
	 0.453019403,	 0.0754429742
	 0.482958434,	 0.081834578
	 0.554541784,	 0.0567031055
	 0.579620116,	 0.0279245178
	 0.594994954,	-0.00633693159
	 0.583268652,	-0.121509429
	 0.545895155,	-0.170767753
	 0.404138888,	-0.206518568
	 0.346702599,	-0.172944701
	 0.324338702,	-0.142661042
END
BEGIN
	 0.454135065,	 0.069357115
	 0.484608926,	 0.073392658
	 0.556861814,	 0.041377048
	 0.581682704,	 0.00890580572
	 0.596371568,	-0.0290009371
	 0.580051665,	-0.154152612
	 0.539435073,	-0.206624031
	 0.392836818,	-0.241747242
	 0.337074853,	-0.205559392
	 0.316927392,	-0.174058995
END
BEGIN
	-0.546980596,	 0.0754429742
	-0.517041565,	 0.081834578
	-0.445458215,	 0.0567031055
	-0.420379883,	 0.0279245178
	-0.405005045,	-0.00633693159
	-0.416731347,	-0.121509429
	-0.454104844,	-0.170767753
	-0.595861111,	-0.206518568
	-0.6532974,	-0.172944701
	-0.675661297,	-0.142661042
END
BEGIN
	 0.220409475,	-0.302674787
	 0.124850723,	-0.336607018
	-0.0874568644,	-0.302341306
	-0.158737244,	-0.247508042
	-0.206094934,	-0.184587854
	-0.2521598,	 0.0132202224
	-0.237363052,	 0.110141165
	-0.0808562074,	 0.325820332
	 0.0526876039,	 0.372512788
	 0.138024404,	 0.371557669
END
BEGIN
	 0.00024661792 ,	 0.000208109788 
	 0.000357816322 ,	 0.000170772086 
	 0.000513250202 ,	 -8.34368346e-005 
	 0.000504027726 ,	 -0.000240862085 
	 0.000445183188 ,	 -0.000390461815 
	 1.44277275e-005 ,	 -0.000758721393 
	 -0.000348135987 ,	 -0.000866466718 
	 -0.00155118769 ,	 -0.000538021288 
	 -0.00199408303 ,	 2.05446012e-005 
	 -0.00212845583 ,	 0.000433414219 
END
BEGIN
	 -9.29410225e-005 ,	 0.000164570346 
	 -0.000151782808 ,	 0.000225205562 
	 -0.000373560319 ,	 0.000388657403 
	 -0.000542776862 ,	 0.000488348539 
	 -0.000758883863 ,	 0.000620315366 
	 -0.00169059201 ,	 0.00149488351 
	 -0.0021521011 ,	 0.0023349951 
	 -0.00207906118 ,	 0.00498565651 
	 -0.00134627965 ,	 0.00586950506 
	 -0.000815663387 ,	 0.00615615202 
END
BEGIN
	 -6.99868606e-005 ,	 8.65576787e-005 
	 -0.000117026875 ,	 0.000114342824 
	 -0.000316809337 ,	 0.000178419288 
	 -0.000481192777 ,	 0.000223832293 
	 -0.000695426116 ,	 0.000301123188 
	 -0.00161661507 ,	 0.000998151701 
	 -0.00205426196 ,	 0.00173216107 
	 -0.00190179199 ,	 0.00399108133 
	 -0.00119833017 ,	 0.0046339882 
	 -0.000722228522 ,	 0.00478053554 
END
BEGIN
	 0.609164845,	-0.00711184225
	 0.680609173,	-0.111234113
	 0.66980046,	-0.475518438
	 0.561290282,	-0.638537345
	 0.410113804,	-0.757597915
	-0.145450795,	-0.833153001
	-0.396973484,	-0.730758844
	-0.732275486,	-0.271331671
	-0.726090034,	-0.057081753
	-0.685649229,	 0.0427444462
END
BEGIN
	 0.000142671046 ,	 0.000944335187 
	 0.000207789573 ,	 0.00119190286 
	 0.000334539886 ,	 0.00179078495 
	 0.000389064363 ,	 0.00211708529 
	 0.0004600684 ,	 0.00247471232 
	 0.00101001766 ,	 0.003762077 
	 0.00157060998 ,	 0.00435673484 
	 0.00310376295 ,	 0.00469390062 
	 0.00337417297 ,	 0.00443382548 
	 0.00336452767 ,	 0.00430959875 
END
BEGIN
	 0.220409475,	-0.302674787
	 0.124850723,	-0.336607018
	-0.0874568644,	-0.302341306
	-0.158737244,	-0.247508042
	-0.206094934,	-0.184587854
	-0.2521598,	 0.0132202224
	-0.237363052,	 0.110141165
	-0.0808562074,	 0.325820332
	 0.0526876039,	 0.372512788
	 0.138024404,	 0.371557669
END
BEGIN
	 0.216489418,	-0.305599188
	 0.119131659,	-0.338846009
	-0.0958313089,	-0.300239644
	-0.167066135,	-0.242689468
	-0.213562112,	-0.177146642
	-0.252784636,	 0.027282187
	-0.23210345,	 0.126226158
	-0.0554390268,	 0.336678715
	 0.0858174809,	 0.373598168
	 0.17352302,	 0.365230828
END
BEGIN
	 0.220409475,	-0.302674787
	 0.124850723,	-0.336607018
	-0.0874568644,	-0.302341306
	-0.158737244,	-0.247508042
	-0.206094934,	-0.184587854
	-0.2521598,	 0.0132202224
	-0.237363052,	 0.110141165
	-0.0808562074,	 0.325820332
	 0.0526876039,	 0.372512788
	 0.138024404,	 0.371557669
END
BEGIN
	-0.252125722,	 0.370532795
	-0.10283824,	 0.344273339
	 0.0857088704,	 0.0976710232
	 0.0675136957,	-0.0311083104
	 0.00174419033,	-0.121514935
	-0.247321141,	-0.119877657
	-0.285059302,	-0.0174004086
	-0.106799621,	 0.0772222104
	-0.0535285515,	-0.0148639236
	-0.0660335035,	-0.0811250717
END
BEGIN
	 -0.000294878564 ,	 -0.000445611961 
	 -0.000360388181 ,	 -0.000439535997 
	 -0.000208495408 ,	 -0.000448252945 
	 -4.2283083e-005 ,	 -0.000598770323 
	 8.99501414e-005 ,	 -0.00086748004 
	 -0.000210161482 ,	 -0.00205925715 
	 -0.00080736081 ,	 -0.0024599974 
	 -0.00190005992 ,	 -0.00201567831 
	 -0.00169401754 ,	 -0.00171959733 
	 -0.00144164991 ,	 -0.00173167051 
END
BEGIN
	 -0.000356784023 ,	 -8.41826075e-005 
	 -0.000559958398 ,	 3.37020056e-005 
	 -0.000946216415 ,	 0.000750399582 
	 -0.000944674741 ,	 0.00128000584 
	 -0.000758680002 ,	 0.00184815317 
	 0.00111841355 ,	 0.00322124649 
	 0.00269800452 ,	 0.00321226545 
	 0.00606037969 ,	 -8.11553707e-005 
	 0.00619273018 ,	 -0.00265938128 
	 0.00570496278 ,	 -0.00413968783 
END
BEGIN
	 -0.000398368768 ,	 -9.67517125e-005 
	 -0.000615972692 ,	 3.7509358e-005 
	 -0.000998599194 ,	 0.000813555219 
	 -0.000973859341 ,	 0.00136560377 
	 -0.000756727321 ,	 0.00194335453 
	 0.00120408799 ,	 0.0032445399 
	 0.00276875915 ,	 0.00314427902 
	 0.00574673863 ,	 -0.000296149582 
	 0.00559687773 ,	 -0.00274442007 
