CITIFILE A.01.01
#Momentum: B.12.00.024 (*) built: Jan 14 2016 
#Momentum Date and Time: Wed Dec 06 17:47:06 2017

NAME PortSet1


CONSTANT NBR_OF_PORTS 9

VAR freq MAG 2

DATA GAMMA_1[1] RI
DATA Z0_1[1,1] RI
DATA LAMBADAI_1[1,1] RI

VAR_LIST_BEGIN
	 400000000
	 7200000000
VAR_LIST_END

BEGIN
	 0 ,	 0 
	 0 ,	 0 
END
BEGIN
	 50 ,	 0 
	 50 ,	 0 
END
BEGIN
	 0 ,	 0 
	 0 ,	 0 
END
CITIFILE A.01.01
NAME PortSet2

VAR freq MAG 2

DATA GAMMA_2[1] RI
DATA Z0_2[1,1] RI
DATA LAMBADAI_2[1,1] RI

VAR_LIST_BEGIN
	 400000000
	 7200000000
VAR_LIST_END

BEGIN
	 0 ,	 0 
	 0 ,	 0 
END
BEGIN
	 50 ,	 0 
	 50 ,	 0 
END
BEGIN
	 0 ,	 0 
	 0 ,	 0 
END
CITIFILE A.01.01
NAME PortSet3

VAR freq MAG 2

DATA GAMMA_3[1] RI
DATA Z0_3[1,1] RI
DATA LAMBADAI_3[1,1] RI

VAR_LIST_BEGIN
	 400000000
	 7200000000
VAR_LIST_END

BEGIN
	 0 ,	 0 
	 0 ,	 0 
END
BEGIN
	 50 ,	 0 
	 50 ,	 0 
END
BEGIN
	 0 ,	 0 
	 0 ,	 0 
END
CITIFILE A.01.01
NAME PortSet4

VAR freq MAG 2

DATA GAMMA_4[1] RI
DATA Z0_4[1,1] RI
DATA LAMBADAI_4[1,1] RI

VAR_LIST_BEGIN
	 400000000
	 7200000000
VAR_LIST_END

BEGIN
	 0 ,	 0 
	 0 ,	 0 
END
BEGIN
	 50 ,	 0 
	 50 ,	 0 
END
BEGIN
	 0 ,	 0 
	 0 ,	 0 
END
CITIFILE A.01.01
NAME PortSet5/TwoP0_Dsolver_data/first_odd_mode_is_1/most_even_mode_is_1/PMLG4/LS0

VAR freq MAG 18

DATA GAMMA_5[1] RI
DATA Z0_5[1,1] RI
DATA LAMBADAI_5[1,1] RI
DATA Zcir_5[1,1] RI
DATA Ycir_5[1,1] RI

VAR_LIST_BEGIN
	 400000000
	 404000000
	 408000000
	 412000000
	 533048642.5
	 651742785.4
	 770436928.4
	 889131071.3
	 1108362307
	 1431366408
	 1823276680
	 2275089041
	 2826067699
	 3530588821
	 4432649841
	 5566735724
	 6979362321
	 7200000000
VAR_LIST_END

BEGIN
	 0.06753375508,	 14.14008571
	 0.06799564991,	 14.28113361
	 0.06845649223,	 14.42217945
	 0.06891629775,	 14.56322328
	 0.08240640399,	 18.83070853
	 0.09500781847,	 23.01409356
	 0.1071569429,	 27.19684326
	 0.1189558623,	 31.37927099
	 0.1400529822,	 39.10424994
	 0.1699508661,	 50.48755356
	 0.2049377951,	 64.30505231
	 0.2440960175,	 80.24611987
	 0.2907075121,	 99.70753375
	 0.3491149208,	 124.6334931
	 0.4227014318,	 156.6261047
	 0.5141836152,	 196.9861162
	 0.6274867264,	 247.4933711
	 0.645166054,	 255.4065956
END
BEGIN
	 57.920836791709476 ,	 -0.073587627679710318 
	 57.920598466950096 ,	 -0.072723347111532305 
	 57.920366757817753 ,	 -0.071871731130460581 
	 57.920141478217865 ,	 -0.071032473446780167 
	 57.915636083136228 ,	 -0.050267339467362088 
	 57.913941877554656 ,	 -0.035789341445807588 
	 57.913681640677723 ,	 -0.024782522783161814 
	 57.914276669208647 ,	 -0.016043945429028941 
	 57.916721941134419 ,	 -0.0037404724791875463 
	 57.922205160302056 ,	 0.0089851718795531943 
	 57.930832632229574 ,	 0.019677131895252251 
	 57.943041217737736 ,	 0.028454093297102457 
	 57.961199577324287 ,	 0.036242166961530063 
	 57.990020956364098 ,	 0.043517985727749404 
	 58.036747394659557 ,	 0.050325809996142223 
	 58.112018335411371 ,	 0.056629857800707846 
	 58.232256592562436 ,	 0.062510739733078247 
	 58.253696009577276 ,	 0.063298380850772509 
END
BEGIN
	 0.06753375508,	 14.14008571
	 0.06799564991,	 14.28113361
	 0.06845649223,	 14.42217945
	 0.06891629775,	 14.56322328
	 0.08240640399,	 18.83070853
	 0.09500781847,	 23.01409356
	 0.1071569429,	 27.19684326
	 0.1189558623,	 31.37927099
	 0.1400529822,	 39.10424994
	 0.1699508661,	 50.48755356
	 0.2049377951,	 64.30505231
	 0.2440960175,	 80.24611987
	 0.2907075121,	 99.70753375
	 0.3491149208,	 124.6334931
	 0.4227014318,	 156.6261047
	 0.5141836152,	 196.9861162
	 0.6274867264,	 247.4933711
	 0.645166054,	 255.4065956
END
BEGIN
	 0.01314506982,	 8.649952976e-010
	 0.01321082933,	 8.649704387e-010
	 0.0132762649,	 8.649459729e-010
	 0.01334138136,	 8.649218911e-010
	 0.01518112006,	 8.643377958e-010
	 0.01679168205,	 8.639511033e-010
	 0.01826202526,	 8.636769977e-010
	 0.01962329212,	 8.634789339e-010
	 0.02191933205,	 8.632480151e-010
	 0.02492575706,	 8.631143243e-010
	 0.02815509197,	 8.631619015e-010
	 0.031482291,	 8.634100156e-010
	 0.03513425045,	 8.639190956e-010
	 0.03934215111,	 8.648311177e-010
	 0.0441957488,	 8.663518491e-010
	 0.04970385612,	 8.687435268e-010
	 0.05592587229,	 8.723728328e-010
	 0.05684830621,	 8.729990934e-010
END
BEGIN
	 0.3224073971,	 3.659400278e-008
	 0.3256330282,	 3.659324705e-008
	 0.328858702,	 3.659249968e-008
	 0.3320844186,	 3.65917605e-008
	 0.4297236395,	 3.657261979e-008
	 0.5255109863,	 3.655831896e-008
	 0.6213529078,	 3.654699259e-008
	 0.7172562177,	 3.653781802e-008
	 0.8945737743,	 3.652490519e-008
	 1.1563122397484495 ,	 3.6512278973261766e-008 
	 1.4747745022938092 ,	 3.650337226107616e-008 
	 1.8432579151642354 ,	 3.6498445165154067e-008 
	 2.2947371833070194 ,	 3.6497056996252681e-008 
	 2.8756264268383109 ,	 3.649925178458122e-008 
	 3.6254689720084139 ,	 3.6504556250076504e-008 
	 4.5778176106738258 ,	 3.6510543382442799e-008 
	 5.7782692137967979 ,	 3.6511803357741801e-008 
	 5.9670911653109817 ,	 3.6511122185933672e-008 
END
CITIFILE A.01.01
NAME PortSet6/TwoP0_Dsolver_data/first_odd_mode_is_1/most_even_mode_is_1/PMLG4/LS0

VAR freq MAG 18

DATA GAMMA_6[1] RI
DATA Z0_6[1,1] RI
DATA LAMBADAI_6[1,1] RI
DATA Zcir_6[1,1] RI
DATA Ycir_6[1,1] RI

VAR_LIST_BEGIN
	 400000000
	 404000000
	 408000000
	 412000000
	 533116586.1
	 651883476.9
	 770650367.7
	 889417258.5
	 1108729042
	 1432064807
	 1824325056
	 2276556515
	 2828142948
	 3533612110
	 4437397124
	 5574527725
	 6993373036
	 7200000000
VAR_LIST_END

BEGIN
	 0.0634129984,	 14.24623612
	 0.06385596252,	 14.38836833
	 0.06429798966,	 14.53049863
	 0.06473909385,	 14.67262706
	 0.07771710902,	 18.97541277
	 0.08988584055,	 23.19374064
	 0.1016524982,	 27.41153758
	 0.1131084162,	 31.62911578
	 0.1336467435,	 39.4173827
	 0.1628807664,	 50.9021766
	 0.1972172358,	 64.8421209
	 0.2357847263,	 80.9266147
	 0.281854796,	 100.5690303
	 0.3397926078,	 125.7370321
	 0.4130828285,	 158.065526
	 0.5045884706,	 198.8919745
	 0.6185082163,	 250.0875727
	 0.6351127391,	 257.5676787
END
BEGIN
	 52.365169353601253 ,	 -0.047818234828905994 
	 52.365046478204945 ,	 -0.047122995386998857 
	 52.364928177469508 ,	 -0.046437956904615933 
	 52.364814316404654 ,	 -0.045762872316200347 
	 52.362942334810633 ,	 -0.029055949941940232 
	 52.362910649223934 ,	 -0.017412830572509516 
	 52.363783073316469 ,	 -0.0085639744743382842 
	 52.36517011905525 ,	 -0.0015401076013428208 
	 52.368508789464435 ,	 0.0083460668761717229 
	 52.374513932202689 ,	 0.018578498625771604 
	 52.383055826458069 ,	 0.027177396044627721 
	 52.394578552092931 ,	 0.034242462511605704 
	 52.411368680251016 ,	 0.040521726074287112 
	 52.437783558091581 ,	 0.046403144463519556 
	 52.480573603390965 ,	 0.051929372899674246 
	 52.549657777543707 ,	 0.057078051453666255 
	 52.660377064843175 ,	 0.061924286937761273 
	 52.678771204906944 ,	 0.062533088927987812 
END
BEGIN
	 0.0634129984,	 14.24623612
	 0.06385596252,	 14.38836833
	 0.06429798966,	 14.53049863
	 0.06473909385,	 14.67262706
	 0.07771710902,	 18.97541277
	 0.08988584055,	 23.19374064
	 0.1016524982,	 27.41153758
	 0.1131084162,	 31.62911578
	 0.1336467435,	 39.4173827
	 0.1628807664,	 50.9021766
	 0.1972172358,	 64.8421209
	 0.2357847263,	 80.9266147
	 0.281854796,	 100.5690303
	 0.3397926078,	 125.7370321
	 0.4130828285,	 158.065526
	 0.5045884706,	 198.8919745
	 0.6185082163,	 250.0875727
	 0.6351127391,	 257.5676787
END
BEGIN
	 0.01062261666,	 7.878987248e-010
	 0.01067565511,	 7.878788537e-010
	 0.01072843243,	 7.878593011e-010
	 0.01078095251,	 7.878400597e-010
	 0.01226565617,	 7.873749546e-010
	 0.01356554547,	 7.870703396e-010
	 0.01475235758,	 7.868578144e-010
	 0.0158512672,	 7.86707835e-010
	 0.01770470646,	 7.865427029e-010
	 0.02013406836,	 7.86472757e-010
	 0.02274465304,	 7.865675177e-010
	 0.02543653406,	 7.868457791e-010
	 0.02839475095,	 7.873699781e-010
	 0.03180889736,	 7.88277625e-010
	 0.03575655521,	 7.897653274e-010
	 0.04025049862,	 7.920813214e-010
	 0.04534909527,	 7.955732056e-010
	 0.04605536921,	 7.96132363e-010
END
BEGIN
	 0.3626192628,	 4.078024185e-008
	 0.3662473024,	 4.077939992e-008
	 0.369875396,	 4.077856744e-008
	 0.373503544,	 4.077774423e-008
	 0.4833887038,	 4.075647436e-008
	 0.5912018058,	 4.074068391e-008
	 0.6990836513,	 4.072827376e-008
	 0.8070426357,	 4.071831378e-008
	 1.0066243033211104 ,	 4.0704522736289086e-008 
	 1.3014813013591591 ,	 4.0691517654072773e-008 
	 1.660297178922213 ,	 4.0683107310680679e-008 
	 2.0756408165961209 ,	 4.067956808844751e-008 
	 2.5848540655067302 ,	 4.068056380975622e-008 
	 3.2405585842312861 ,	 4.0686411273893781e-008 
	 4.0880515141783222 ,	 4.069672874751804e-008 
	 5.1661420626106223 ,	 4.0708803491942989e-008 
	 6.5286306986574951 ,	 4.0716491504847452e-008 
	 6.7285327630456999 ,	 4.0716656485213648e-008 
END
CITIFILE A.01.01
NAME PortSet7/TwoP0_Dsolver_data/first_odd_mode_is_1/most_even_mode_is_1/PMLG4/LS0

VAR freq MAG 18

DATA GAMMA_7[1] RI
DATA Z0_7[1,1] RI
DATA LAMBADAI_7[1,1] RI
DATA Zcir_7[1,1] RI
DATA Ycir_7[1,1] RI

VAR_LIST_BEGIN
	 400000000
	 404000000
	 408000000
	 412000000
	 532836250.3
	 651577053.8
	 770317857.4
	 889058660.9
	 1108255721
	 1431529474
	 1823781310
	 2276171184
	 2828245616
	 3534987551
	 4441592010
	 5584616581
	 7015291659
	 7200000000
VAR_LIST_END

BEGIN
	 0.06329063291,	 14.62116961
	 0.06374030312,	 14.76705998
	 0.06418907761,	 14.91294865
	 0.06463696996,	 15.05883566
	 0.07780765831,	 19.46531895
	 0.09021887441,	 23.79464763
	 0.1022477322,	 28.12372201
	 0.1139821442,	 32.4528866
	 0.1350636179,	 40.44568168
	 0.16517676,	 52.23830412
	 0.2006740866,	 66.55836099
	 0.2406945966,	 83.09344716
	 0.2886850869,	 103.3057261
	 0.3493004895,	 129.2418814
	 0.4263440047,	 162.6232821
	 0.5230377088,	 204.8986771
	 0.644073805,	 258.1196098
	 0.6597248708,	 265.0156861
END
BEGIN
	 35.005748929278667 ,	 -0.024055344690353028 
	 35.005699152894309 ,	 -0.023620628280072969 
	 35.005651847071036 ,	 -0.023192285892894269 
	 35.005606933623504 ,	 -0.022770163376226747 
	 35.005082574873434 ,	 -0.012341952856332727 
	 35.005493700838258 ,	 -0.0050543419606812762 
	 35.006346746098735 ,	 0.00048594129949573831 
	 35.007442062807321 ,	 0.004885146451821744 
	 35.009833169033399 ,	 0.011079239708836409 
	 35.01395011170645 ,	 0.017500272841663767 
	 35.019837764888706 ,	 0.022907540859640699 
	 35.028062138553075 ,	 0.027363886131675692 
	 35.040573405107189 ,	 0.031340998989116596 
	 35.061103819505419 ,	 0.035087689564966065 
	 35.095484147116665 ,	 0.038634967576864528 
	 35.152117067060423 ,	 0.041970841420338072 
	 35.243438630244484 ,	 0.045142004151125618 
	 35.256815264516561 ,	 0.045496894724226064 
END
BEGIN
	 0.06329063291,	 14.62116961
	 0.06374030312,	 14.76705998
	 0.06418907761,	 14.91294865
	 0.06463696996,	 15.05883566
	 0.07780765831,	 19.46531895
	 0.09021887441,	 23.79464763
	 0.1022477322,	 28.12372201
	 0.1139821442,	 32.4528866
	 0.1350636179,	 40.44568168
	 0.16517676,	 52.23830412
	 0.2006740866,	 66.55836099
	 0.2406945966,	 83.09344716
	 0.2886850869,	 103.3057261
	 0.3493004895,	 129.2418814
	 0.4263440047,	 162.6232821
	 0.5230377088,	 204.8986771
	 0.644073805,	 258.1196098
	 0.6597248708,	 265.0156861
END
BEGIN
	 0.00681456423265347 ,	 5.40567223343248e-010 
	 0.00684861465921895 ,	 5.4055472588782e-010 
	 0.0068824976786451 ,	 5.4054243512963e-010 
	 0.00691621579967849 ,	 5.40530346226301e-010 
	 0.00786743999869452 ,	 5.40241271588513e-010 
	 0.00870230493369757 ,	 5.40056216202827e-010 
	 0.00946473501743934 ,	 5.39932098439918e-010 
	 0.0101708982,	 5.398498816e-010
	 0.01136209796,	 5.397742736e-010
	 0.01292517592,	 5.397840827e-010
	 0.0146069605,	 5.399261329e-010
	 0.01634406517,	 5.402172567e-010
	 0.01825705315,	 5.407158066e-010
	 0.02047103818,	 5.41541378e-010
	 0.02303983114,	 5.428577642e-010
	 0.02597643769,	 5.448639899e-010
	 0.02932425976,	 5.478282644e-010
	 0.02973587511,	 5.482429589e-010
END
BEGIN
	 0.5730009573,	 6.260868707e-008
	 0.5787356116,	 6.260741095e-008
	 0.5844703955,	 6.260615004e-008
	 0.5902053099,	 6.260490406e-008
	 0.7635177532,	 6.257314332e-008
	 0.9339642276,	 6.255013875e-008
	 1.1045683068757539 ,	 6.2532642009392014e-008 
	 1.2753465674989894 ,	 6.2519151423295488e-008 
	 1.5911104297517749 ,	 6.2501781109118476e-008 
	 2.0581280834686364 ,	 6.2488144815321982e-008 
	 2.6271398751566051 ,	 6.2483513975053413e-008 
	 3.2868335274946583 ,	 6.2487802989278651e-008 
	 4.0971285299999849 ,	 6.2500773786106022e-008 
	 5.1429693322375796 ,	 6.2522876117809442e-008 
	 6.4982820555072376 ,	 6.255208647592637e-008 
	 8.2273498113051051 ,	 6.2581090112187746e-008 
	 10.418806207187316 ,	 6.2595866041864581e-008 
	 10.703599977615712 ,	 6.2595720836702881e-008 
END
CITIFILE A.01.01
NAME PortSet8/TwoP0_Dsolver_data/first_odd_mode_is_1/most_even_mode_is_1/PMLG4/LS0

VAR freq MAG 18

DATA GAMMA_8[1] RI
DATA Z0_8[1,1] RI
DATA LAMBADAI_8[1,1] RI
DATA Zcir_8[1,1] RI
DATA Ycir_8[1,1] RI

VAR_LIST_BEGIN
	 400000000
	 404000000
	 408000000
	 412000000
	 532836245.5
	 651577048.6
	 770317851.7
	 889058654.9
	 1108255713
	 1431529464
	 1823781296
	 2276171167
	 2828245596
	 3534987526
	 4441591978
	 5584616540
	 7015291608
	 7200000000
VAR_LIST_END

BEGIN
	 0.06329063291,	 14.62116961
	 0.06374030312,	 14.76705998
	 0.06418907761,	 14.91294865
	 0.06463696996,	 15.05883566
	 0.0778076578,	 19.46531877
	 0.09021887387,	 23.79464744
	 0.1022477317,	 28.1237218
	 0.1139821436,	 32.45288638
	 0.1350636172,	 40.4456814
	 0.1651767591,	 52.23830374
	 0.2006740854,	 66.5583605
	 0.2406945951,	 83.09344655
	 0.2886850852,	 103.3057253
	 0.3493004873,	 129.2418804
	 0.426344002,	 162.6232809
	 0.5230377054,	 204.8986756
	 0.6440738006,	 258.1196079
	 0.6597248708,	 265.0156861
END
BEGIN
	 35.005748929278646 ,	 -0.024055344690352618 
	 35.005699152894294 ,	 -0.02362062828007425 
	 35.005651847071022 ,	 -0.02319228589289446 
	 35.005606933623483 ,	 -0.022770163376226976 
	 35.005082574870563 ,	 -0.01234195320130956 
	 35.005493700808245 ,	 -0.0050543422379975963 
	 35.0063467460513 ,	 0.0004859410664462774 
	 35.007442062747018 ,	 0.0048851462498032197 
	 35.009833168942045 ,	 0.011079239521567068 
	 35.013950111562806 ,	 0.017500272669129385 
	 35.019837764668267 ,	 0.022907540703830307 
	 35.028062138218971 ,	 0.027363885991682935 
	 35.040573404587136 ,	 0.031340998862044327 
	 35.061103818661906 ,	 0.035087689447840201 
	 35.095484145719688 ,	 0.038634967467266884 
	 35.152117064763722 ,	 0.041970841316175532 
	 35.243438626545377 ,	 0.045142004050243108 
	 35.256815264516554 ,	 0.04549689472422562 
END
BEGIN
	 0.06329063291,	 14.62116961
	 0.06374030312,	 14.76705998
	 0.06418907761,	 14.91294865
	 0.06463696996,	 15.05883566
	 0.0778076578,	 19.46531877
	 0.09021887387,	 23.79464744
	 0.1022477317,	 28.1237218
	 0.1139821436,	 32.45288638
	 0.1350636172,	 40.4456814
	 0.1651767591,	 52.23830374
	 0.2006740854,	 66.5583605
	 0.2406945951,	 83.09344655
	 0.2886850852,	 103.3057253
	 0.3493004873,	 129.2418804
	 0.426344002,	 162.6232809
	 0.5230377054,	 204.8986756
	 0.6440738006,	 258.1196079
	 0.6597248708,	 265.0156861
END
BEGIN
	 0.00681456423265343 ,	 5.40567223343247e-010 
	 0.00684861465921904 ,	 5.4055472588782e-010 
	 0.00688249767864511 ,	 5.4054243512963e-010 
	 0.0069162157996785 ,	 5.40530346226301e-010 
	 0.00786743996293591 ,	 5.40241271597688e-010 
	 0.00870230489858797 ,	 5.40056216209467e-010 
	 0.00946473498258725 ,	 5.39932098444718e-010 
	 0.01017089817,	 5.398498816e-010
	 0.01136209792,	 5.397742736e-010
	 0.01292517588,	 5.397840827e-010
	 0.01460696045,	 5.399261329e-010
	 0.01634406511,	 5.402172567e-010
	 0.01825705309,	 5.407158066e-010
	 0.0204710381,	 5.415413779e-010
	 0.02303983106,	 5.428577641e-010
	 0.02597643759,	 5.448639898e-010
	 0.02932425964,	 5.478282642e-010
	 0.02973587511,	 5.482429589e-010
END
BEGIN
	 0.5730009573,	 6.260868707e-008
	 0.5787356116,	 6.260741095e-008
	 0.5844703955,	 6.260615004e-008
	 0.5902053099,	 6.260490406e-008
	 0.7635177462,	 6.257314332e-008
	 0.9339642201,	 6.255013875e-008
	 1.1045682987509171 ,	 6.2532642010120409e-008 
	 1.2753465587756028 ,	 6.2519151423899727e-008 
	 1.5911104185183098 ,	 6.2501781109597288e-008 
	 2.058128068323871 ,	 6.2488144815592874e-008 
	 2.6271398555884939 ,	 6.248351397505336e-008 
	 3.2868335031674447 ,	 6.2487802988990646e-008 
	 4.0971284997807205 ,	 6.2500773785526029e-008 
	 5.1429692940676421 ,	 6.2522876116963309e-008 
	 6.4982820067322571 ,	 6.2552086474943772e-008 
	 8.2273497488920508 ,	 6.258109011138816e-008 
	 10.418806127436978 ,	 6.2595866041836668e-008 
	 10.703599977615712 ,	 6.2595720836702881e-008 
END
CITIFILE A.01.01
NAME PortSet9/TwoP0_Dsolver_data/first_odd_mode_is_1/most_even_mode_is_1/PMLG4/LS0

VAR freq MAG 18

DATA GAMMA_9[1] RI
DATA Z0_9[1,1] RI
DATA LAMBADAI_9[1,1] RI
DATA Zcir_9[1,1] RI
DATA Ycir_9[1,1] RI

VAR_LIST_BEGIN
	 400000000
	 404000000
	 408000000
	 412000000
	 533116586.1
	 651883476.9
	 770650367.7
	 889417258.5
	 1108729042
	 1432064807
	 1824325056
	 2276556515
	 2828142948
	 3533612110
	 4437397124
	 5574527725
	 6993373036
	 7200000000
VAR_LIST_END

BEGIN
	 0.0634129984,	 14.24623612
	 0.06385596252,	 14.38836833
	 0.06429798966,	 14.53049863
	 0.06473909385,	 14.67262706
	 0.07771710902,	 18.97541277
	 0.08988584055,	 23.19374064
	 0.1016524982,	 27.41153758
	 0.1131084162,	 31.62911578
	 0.1336467435,	 39.4173827
	 0.1628807664,	 50.9021766
	 0.1972172358,	 64.8421209
	 0.2357847263,	 80.9266147
	 0.281854796,	 100.5690303
	 0.3397926078,	 125.7370321
	 0.4130828285,	 158.065526
	 0.5045884706,	 198.8919745
	 0.6185082163,	 250.0875727
	 0.6351127391,	 257.5676787
END
BEGIN
	 52.365169353601253 ,	 -0.047818234828905994 
	 52.365046478204945 ,	 -0.047122995386998857 
	 52.364928177469508 ,	 -0.046437956904615933 
	 52.364814316404654 ,	 -0.045762872316200347 
	 52.362942334810633 ,	 -0.029055949941940232 
	 52.362910649223934 ,	 -0.017412830572509516 
	 52.363783073316469 ,	 -0.0085639744743382842 
	 52.36517011905525 ,	 -0.0015401076013428208 
	 52.368508789464435 ,	 0.0083460668761717229 
	 52.374513932202689 ,	 0.018578498625771604 
	 52.383055826458069 ,	 0.027177396044627721 
	 52.394578552092931 ,	 0.034242462511605704 
	 52.411368680251016 ,	 0.040521726074287112 
	 52.437783558091581 ,	 0.046403144463519556 
	 52.480573603390965 ,	 0.051929372899674246 
	 52.549657777543707 ,	 0.057078051453666255 
	 52.660377064843175 ,	 0.061924286937761273 
	 52.678771204906944 ,	 0.062533088927987812 
END
BEGIN
	 0.0634129984,	 14.24623612
	 0.06385596252,	 14.38836833
	 0.06429798966,	 14.53049863
	 0.06473909385,	 14.67262706
	 0.07771710902,	 18.97541277
	 0.08988584055,	 23.19374064
	 0.1016524982,	 27.41153758
	 0.1131084162,	 31.62911578
	 0.1336467435,	 39.4173827
	 0.1628807664,	 50.9021766
	 0.1972172358,	 64.8421209
	 0.2357847263,	 80.9266147
	 0.281854796,	 100.5690303
	 0.3397926078,	 125.7370321
	 0.4130828285,	 158.065526
	 0.5045884706,	 198.8919745
	 0.6185082163,	 250.0875727
	 0.6351127391,	 257.5676787
END
BEGIN
	 0.01062261666,	 7.878987248e-010
	 0.01067565511,	 7.878788537e-010
	 0.01072843243,	 7.878593011e-010
	 0.01078095251,	 7.878400597e-010
	 0.01226565617,	 7.873749546e-010
	 0.01356554547,	 7.870703396e-010
	 0.01475235758,	 7.868578144e-010
	 0.0158512672,	 7.86707835e-010
	 0.01770470646,	 7.865427029e-010
	 0.02013406836,	 7.86472757e-010
	 0.02274465304,	 7.865675177e-010
	 0.02543653406,	 7.868457791e-010
	 0.02839475095,	 7.873699781e-010
	 0.03180889736,	 7.88277625e-010
	 0.03575655521,	 7.897653274e-010
	 0.04025049862,	 7.920813214e-010
	 0.04534909527,	 7.955732056e-010
	 0.04605536921,	 7.96132363e-010
END
BEGIN
	 0.3626192628,	 4.078024185e-008
	 0.3662473024,	 4.077939992e-008
	 0.369875396,	 4.077856744e-008
	 0.373503544,	 4.077774423e-008
	 0.4833887038,	 4.075647436e-008
	 0.5912018058,	 4.074068391e-008
	 0.6990836513,	 4.072827376e-008
	 0.8070426357,	 4.071831378e-008
	 1.0066243033211104 ,	 4.0704522736289086e-008 
	 1.3014813013591591 ,	 4.0691517654072773e-008 
