CITIFILE A.01.01
#Momentum: B.12.00.024 (*) built: Jan 14 2016 
#Momentum Date and Time: Thu Jan 18 10:23:25 2018

NAME PortSet1


CONSTANT NBR_OF_PORTS 22

VAR freq MAG 2

DATA GAMMA_1[1] RI
DATA Z0_1[1,1] RI
DATA LAMBADAI_1[1,1] RI

VAR_LIST_BEGIN
	 9244492.989
	 2500000000
VAR_LIST_END

BEGIN
	 0 ,	 0 
	 0 ,	 0 
END
BEGIN
	 50 ,	 0 
	 50 ,	 0 
END
BEGIN
	 0 ,	 0 
	 0 ,	 0 
END
CITIFILE A.01.01
NAME PortSet2

VAR freq MAG 2

DATA GAMMA_2[1] RI
DATA Z0_2[1,1] RI
DATA LAMBADAI_2[1,1] RI

VAR_LIST_BEGIN
	 9244492.989
	 2500000000
VAR_LIST_END

BEGIN
	 0 ,	 0 
	 0 ,	 0 
END
BEGIN
	 50 ,	 0 
	 50 ,	 0 
END
BEGIN
	 0 ,	 0 
	 0 ,	 0 
END
CITIFILE A.01.01
NAME PortSet3

VAR freq MAG 2

DATA GAMMA_3[1] RI
DATA Z0_3[1,1] RI
DATA LAMBADAI_3[1,1] RI

VAR_LIST_BEGIN
	 9244492.989
	 2500000000
VAR_LIST_END

BEGIN
	 0 ,	 0 
	 0 ,	 0 
END
BEGIN
	 50 ,	 0 
	 50 ,	 0 
END
BEGIN
	 0 ,	 0 
	 0 ,	 0 
END
CITIFILE A.01.01
NAME PortSet4

VAR freq MAG 2

DATA GAMMA_4[1] RI
DATA Z0_4[1,1] RI
DATA LAMBADAI_4[1,1] RI

VAR_LIST_BEGIN
	 9244492.989
	 2500000000
VAR_LIST_END

BEGIN
	 0 ,	 0 
	 0 ,	 0 
END
BEGIN
	 50 ,	 0 
	 50 ,	 0 
END
BEGIN
	 0 ,	 0 
	 0 ,	 0 
END
CITIFILE A.01.01
NAME PortSet5

VAR freq MAG 2

DATA GAMMA_5[1] RI
DATA Z0_5[1,1] RI
DATA LAMBADAI_5[1,1] RI

VAR_LIST_BEGIN
	 9244492.989
	 2500000000
VAR_LIST_END

BEGIN
	 0 ,	 0 
	 0 ,	 0 
END
BEGIN
	 50 ,	 0 
	 50 ,	 0 
END
BEGIN
	 0 ,	 0 
	 0 ,	 0 
END
CITIFILE A.01.01
NAME PortSet6

VAR freq MAG 2

DATA GAMMA_6[1] RI
DATA Z0_6[1,1] RI
DATA LAMBADAI_6[1,1] RI

VAR_LIST_BEGIN
	 9244492.989
	 2500000000
VAR_LIST_END

BEGIN
	 0 ,	 0 
	 0 ,	 0 
END
BEGIN
	 50 ,	 0 
	 50 ,	 0 
END
BEGIN
	 0 ,	 0 
	 0 ,	 0 
END
CITIFILE A.01.01
NAME PortSet7

VAR freq MAG 2

DATA GAMMA_7[1] RI
DATA Z0_7[1,1] RI
DATA LAMBADAI_7[1,1] RI

VAR_LIST_BEGIN
	 9244492.989
	 2500000000
VAR_LIST_END

BEGIN
	 0 ,	 0 
	 0 ,	 0 
END
BEGIN
	 50 ,	 0 
	 50 ,	 0 
END
BEGIN
	 0 ,	 0 
	 0 ,	 0 
END
CITIFILE A.01.01
NAME PortSet8

VAR freq MAG 2

DATA GAMMA_8[1] RI
DATA Z0_8[1,1] RI
DATA LAMBADAI_8[1,1] RI

VAR_LIST_BEGIN
	 9244492.989
	 2500000000
VAR_LIST_END

BEGIN
	 0 ,	 0 
	 0 ,	 0 
END
BEGIN
	 50 ,	 0 
	 50 ,	 0 
END
BEGIN
	 0 ,	 0 
	 0 ,	 0 
END
CITIFILE A.01.01
NAME PortSet9/TwoP0_Dsolver_data/first_odd_mode_is_1/most_even_mode_is_1/PMLG4/LS0

VAR freq MAG 31

DATA GAMMA_9[1] RI
DATA Z0_9[1,1] RI
DATA LAMBADAI_9[1,1] RI
DATA Zcir_9[1,1] RI
DATA Ycir_9[1,1] RI

VAR_LIST_BEGIN
	 9244492.989
	 9336937.919
	 9429382.849
	 9521827.779
	 12207196.38
	 14777907.84
	 17348619.3
	 19919330.76
	 26593772.2
	 31672232.56
	 36750692.92
	 41829153.29
	 50166291.22
	 62375530.76
	 78297348.79
	 98710863.57
	 125096038.4
	 157726174.2
	 197155211.3
	 245862531.1
	 307495769.7
	 385525691.6
	 483344152.2
	 605387032.9
	 757891371
	 948974538.4
	 1188572532
	 1488807578
	 1864826743
	 2335825467
	 2500000000
VAR_LIST_END

BEGIN
	 0.005963760117,	 0.3352450878
	 0.005997553868,	 0.338576548
	 0.006031360743,	 0.3419077244
	 0.006065178514,	 0.3452386187
	 0.00704333117,	 0.4418808986
	 0.007949227742,	 0.5342194794
	 0.008806488412,	 0.6264259665
	 0.009610080366,	 0.7185344881
	 0.011472572,	 0.9573866213
	 0.01272603049,	 1.138951344
	 0.0138847715,	 1.320421005
	 0.01497678141,	 1.501817422
	 0.01666808184,	 1.799479265
	 0.0189859184,	 2.235143701
	 0.02180560094,	 2.802935974
	 0.02517322802,	 3.53046759
	 0.02922761238,	 4.470287442
	 0.03391295331,	 5.63193111
	 0.03923265214,	 7.034946464
	 0.04543617277,	 8.76736316
	 0.05286892799,	 10.95865455
	 0.06180210877,	 13.73190325
	 0.07246534519,	 17.20735348
	 0.08517642475,	 21.54237738
	 0.1004042993,	 26.95843942
	 0.1187571856,	 33.74407311
	 0.1409656629,	 42.25305262
	 0.1679132165,	 52.91812619
	 0.2007095441,	 66.28200778
	 0.240778836,	 83.03587328
	 0.2545524427,	 88.8801468
END
BEGIN
	 52.878393142672891 ,	 -0.75514992021232885 
	 52.876275929058167 ,	 -0.75113807626568696 
	 52.874167715189316 ,	 -0.74720702799367722 
	 52.87206839704227 ,	 -0.74335408149109661 
	 52.814730377076117 ,	 -0.65643435757302726 
	 52.766268544382704 ,	 -0.59985787143793945 
	 52.724065398283834 ,	 -0.55598685883693899 
	 52.687799195049784 ,	 -0.51952378495035678 
	 52.616645762197685 ,	 -0.44549855943106903 
	 52.57881470762171 ,	 -0.40253192695055817 
	 52.550236749056673 ,	 -0.36767236727432479 
	 52.527989447321993 ,	 -0.33894293474750187 
	 52.500452307493319 ,	 -0.30143114555200495 
	 52.472257617520683 ,	 -0.26085794396550449 
	 52.447425180349043 ,	 -0.22315644713761029 
	 52.426250751961383 ,	 -0.18893196460038103 
	 52.408464238263399 ,	 -0.15773954402376414 
	 52.394463096545074 ,	 -0.13053137814712132 
	 52.383817062824598 ,	 -0.10711420776716055 
	 52.375717733870779 ,	 -0.086345734421940046 
	 52.369714094284461 ,	 -0.06748759576209705 
	 52.36565460120201 ,	 -0.050423614561439123 
	 52.363402815190774 ,	 -0.035161344287721573 
	 52.362783162050881 ,	 -0.021563470300818954 
	 52.363659718076754 ,	 -0.0094138024004060319 
	 52.365995628225576 ,	 0.0014778464539753359 
	 52.369892302405837 ,	 0.011252250584087194 
	 52.375668380368076 ,	 0.020025675115272493 
	 52.384012903169278 ,	 0.02791033510399708 
	 52.39623265143139 ,	 0.035017693181203936 
	 52.400998224685971 ,	 0.037024809372787057 
END
BEGIN
	 0.005963760117,	 0.3352450878
	 0.005997553868,	 0.338576548
	 0.006031360743,	 0.3419077244
	 0.006065178514,	 0.3452386187
	 0.00704333117,	 0.4418808986
	 0.007949227742,	 0.5342194794
	 0.008806488412,	 0.6264259665
	 0.009610080366,	 0.7185344881
	 0.011472572,	 0.9573866213
	 0.01272603049,	 1.138951344
	 0.0138847715,	 1.320421005
	 0.01497678141,	 1.501817422
	 0.01666808184,	 1.799479265
	 0.0189859184,	 2.235143701
	 0.02180560094,	 2.802935974
	 0.02517322802,	 3.53046759
	 0.02922761238,	 4.470287442
	 0.03391295331,	 5.63193111
	 0.03923265214,	 7.034946464
	 0.04543617277,	 8.76736316
	 0.05286892799,	 10.95865455
	 0.06180210877,	 13.73190325
	 0.07246534519,	 17.20735348
	 0.08517642475,	 21.54237738
	 0.1004042993,	 26.95843942
	 0.1187571856,	 33.74407311
	 0.1409656629,	 42.25305262
	 0.1679132165,	 52.91812619
	 0.2007095441,	 66.28200778
	 0.240778836,	 83.03587328
	 0.2545524427,	 88.8801468
END
BEGIN
	 0.00150907493573028 ,	 8.09909949076763e-010 
	 0.00151685688549718 ,	 8.09829264773734e-010 
	 0.00152464225174402 ,	 8.09748985883997e-010 
	 0.00153243040927171 ,	 8.09669107675038e-010 
	 0.0017573774232683 ,	 8.07509835590976e-010 
	 0.0019640223130679 ,	 8.05710793544309e-010 
	 0.00215697631224414 ,	 8.0415328528991e-010 
	 0.00233490533274273 ,	 8.02814409666099e-010 
	 0.00273448256185938 ,	 8.00158469960704e-010 
	 0.00299307934541407 ,	 7.98710947546173e-010 
	 0.0032254642967283 ,	 7.97588934352023e-010 
	 0.00343941114370363 ,	 7.96691895825916e-010 
	 0.00376264049440477 ,	 7.95544180586714e-010 
	 0.00419209368938871 ,	 7.94313803443224e-010 
	 0.00469603996679602 ,	 7.93168431463484e-010 
	 0.0052736819733398 ,	 7.92126280184465e-010 
	 0.0059377092499114 ,	 7.91178147934887e-010 
	 0.00666788487069186 ,	 7.90354531066261e-010 
	 0.0074554616261533 ,	 7.89649251638672e-010 
	 0.00832631731018016 ,	 7.89028024377241e-010 
	 0.00931250625104278 ,	 7.88469862788078e-010 
	 0.01042846669,	 7.879734206e-010
	 0.01167828806,	 7.875420439e-010
	 0.0130719568,	 7.87176343e-010
	 0.01462934363,	 7.868772521e-010
	 0.01637502642,	 7.866505581e-010
	 0.01833384104,	 7.865093629e-010
	 0.02053151652,	 7.864760388e-010
	 0.02299792922,	 7.865858612e-010
	 0.02576956902,	 7.868931696e-010
	 0.02667167954,	 7.870361801e-010
END
BEGIN
	 0.0083778448862802 ,	 4.11219395349125e-008 
	 0.00846163045520377 ,	 4.11210259027819e-008 
	 0.00854541603407817 ,	 4.11201212737467e-008 
	 0.00862920162275252 ,	 4.11192254721505e-008 
	 0.0110630347,	 4.10964147e-008
	 0.01339295558,	 4.107886902e-008
	 0.01572287999,	 4.106414561e-008
	 0.01805280698,	 4.105146151e-008
	 0.02410209825,	 4.102493858e-008
	 0.02870489896,	 4.100890346e-008
	 0.03330770368,	 4.099526203e-008
	 0.0379105124,	 4.098339287e-008
	 0.04546679919,	 4.096673439e-008
	 0.05653255922,	 4.094678527e-008
	 0.07096326739,	 4.092599258e-008
	 0.08946520574,	 4.090484545e-008
	 0.1133800536,	 4.08832894e-008
	 0.1429561459,	 4.086229448e-008
	 0.1786966974,	 4.084221535e-008
	 0.2228512813,	 4.082253314e-008
	 0.2787309762,	 4.080286205e-008
	 0.3494913652,	 4.078337025e-008
	 0.4382249454,	 4.076444578e-008
	 0.5489860034,	 4.074639458e-008
	 0.6874904654,	 4.072947667e-008
	 0.8612115707,	 4.071404892e-008
	 1.0793645131087373 ,	 4.0700631588474816e-008 
	 1.3533080506852748 ,	 4.0689886455458601e-008 
	 1.6974200042693999 ,	 4.0682565990017513e-008 
	 2.1302155730722383 ,	 4.0679446065652868e-008 
	 2.2815625405287636 ,	 4.0679429932127125e-008 
END
CITIFILE A.01.01
NAME PortSet10/TwoP0_Dsolver_data/first_odd_mode_is_1/most_even_mode_is_1/PMLG4/LS0

VAR freq MAG 31

DATA GAMMA_9[1] RI
DATA Z0_9[1,1] RI
DATA LAMBADAI_9[1,1] RI
DATA Zcir_9[1,1] RI
DATA Ycir_9[1,1] RI

VAR_LIST_BEGIN
	 9244492.989
	 9336937.919
	 9429382.849
	 9521827.779
	 12207196.38
	 14777907.84
	 17348619.3
	 19919330.76
	 26593772.2
	 31672232.56
	 36750692.92
	 41829153.29
	 50166291.22
	 62375530.76
	 78297348.79
	 98710863.57
	 125096038.4
	 157726174.2
	 197155211.3
	 245862531.1
	 307495769.7
	 385525691.6
	 483344152.2
	 605387032.9
	 757891371
	 948974538.4
	 1188572532
	 1488807578
	 1864826743
	 2335825467
	 2500000000
VAR_LIST_END

BEGIN
	 0.005963760117,	 0.3352450878
	 0.005997553868,	 0.338576548
	 0.006031360743,	 0.3419077244
	 0.006065178514,	 0.3452386187
	 0.00704333117,	 0.4418808986
	 0.007949227742,	 0.5342194794
	 0.008806488412,	 0.6264259665
	 0.009610080366,	 0.7185344881
	 0.011472572,	 0.9573866213
	 0.01272603049,	 1.138951344
	 0.0138847715,	 1.320421005
	 0.01497678141,	 1.501817422
	 0.01666808184,	 1.799479265
	 0.0189859184,	 2.235143701
	 0.02180560094,	 2.802935974
	 0.02517322802,	 3.53046759
	 0.02922761238,	 4.470287442
	 0.03391295331,	 5.63193111
	 0.03923265214,	 7.034946464
	 0.04543617277,	 8.76736316
	 0.05286892799,	 10.95865455
	 0.06180210877,	 13.73190325
	 0.07246534519,	 17.20735348
	 0.08517642475,	 21.54237738
	 0.1004042993,	 26.95843942
	 0.1187571856,	 33.74407311
	 0.1409656629,	 42.25305262
	 0.1679132165,	 52.91812619
	 0.2007095441,	 66.28200778
	 0.240778836,	 83.03587328
	 0.2545524427,	 88.8801468
END
BEGIN
	 52.878393142672891 ,	 -0.75514992021232885 
	 52.876275929058167 ,	 -0.75113807626568696 
	 52.874167715189316 ,	 -0.74720702799367722 
	 52.87206839704227 ,	 -0.74335408149109661 
	 52.814730377076117 ,	 -0.65643435757302726 
	 52.766268544382704 ,	 -0.59985787143793945 
	 52.724065398283834 ,	 -0.55598685883693899 
	 52.687799195049784 ,	 -0.51952378495035678 
	 52.616645762197685 ,	 -0.44549855943106903 
	 52.57881470762171 ,	 -0.40253192695055817 
	 52.550236749056673 ,	 -0.36767236727432479 
	 52.527989447321993 ,	 -0.33894293474750187 
	 52.500452307493319 ,	 -0.30143114555200495 
	 52.472257617520683 ,	 -0.26085794396550449 
	 52.447425180349043 ,	 -0.22315644713761029 
	 52.426250751961383 ,	 -0.18893196460038103 
	 52.408464238263399 ,	 -0.15773954402376414 
	 52.394463096545074 ,	 -0.13053137814712132 
	 52.383817062824598 ,	 -0.10711420776716055 
	 52.375717733870779 ,	 -0.086345734421940046 
	 52.369714094284461 ,	 -0.06748759576209705 
	 52.36565460120201 ,	 -0.050423614561439123 
	 52.363402815190774 ,	 -0.035161344287721573 
	 52.362783162050881 ,	 -0.021563470300818954 
	 52.363659718076754 ,	 -0.0094138024004060319 
	 52.365995628225576 ,	 0.0014778464539753359 
	 52.369892302405837 ,	 0.011252250584087194 
	 52.375668380368076 ,	 0.020025675115272493 
	 52.384012903169278 ,	 0.02791033510399708 
	 52.39623265143139 ,	 0.035017693181203936 
	 52.400998224685971 ,	 0.037024809372787057 
END
BEGIN
	 0.005963760117,	 0.3352450878
	 0.005997553868,	 0.338576548
	 0.006031360743,	 0.3419077244
	 0.006065178514,	 0.3452386187
	 0.00704333117,	 0.4418808986
	 0.007949227742,	 0.5342194794
	 0.008806488412,	 0.6264259665
	 0.009610080366,	 0.7185344881
	 0.011472572,	 0.9573866213
	 0.01272603049,	 1.138951344
	 0.0138847715,	 1.320421005
	 0.01497678141,	 1.501817422
	 0.01666808184,	 1.799479265
	 0.0189859184,	 2.235143701
	 0.02180560094,	 2.802935974
	 0.02517322802,	 3.53046759
	 0.02922761238,	 4.470287442
	 0.03391295331,	 5.63193111
	 0.03923265214,	 7.034946464
	 0.04543617277,	 8.76736316
	 0.05286892799,	 10.95865455
	 0.06180210877,	 13.73190325
	 0.07246534519,	 17.20735348
	 0.08517642475,	 21.54237738
	 0.1004042993,	 26.95843942
	 0.1187571856,	 33.74407311
	 0.1409656629,	 42.25305262
	 0.1679132165,	 52.91812619
	 0.2007095441,	 66.28200778
	 0.240778836,	 83.03587328
	 0.2545524427,	 88.8801468
END
BEGIN
	 0.00150907493573028 ,	 8.09909949076763e-010 
	 0.00151685688549718 ,	 8.09829264773734e-010 
	 0.00152464225174402 ,	 8.09748985883997e-010 
	 0.00153243040927171 ,	 8.09669107675038e-010 
	 0.0017573774232683 ,	 8.07509835590976e-010 
	 0.0019640223130679 ,	 8.05710793544309e-010 
	 0.00215697631224414 ,	 8.0415328528991e-010 
	 0.00233490533274273 ,	 8.02814409666099e-010 
	 0.00273448256185938 ,	 8.00158469960704e-010 
	 0.00299307934541407 ,	 7.98710947546173e-010 
	 0.0032254642967283 ,	 7.97588934352023e-010 
	 0.00343941114370363 ,	 7.96691895825916e-010 
	 0.00376264049440477 ,	 7.95544180586714e-010 
	 0.00419209368938871 ,	 7.94313803443224e-010 
	 0.00469603996679602 ,	 7.93168431463484e-010 
	 0.0052736819733398 ,	 7.92126280184465e-010 
	 0.0059377092499114 ,	 7.91178147934887e-010 
	 0.00666788487069186 ,	 7.90354531066261e-010 
	 0.0074554616261533 ,	 7.89649251638672e-010 
	 0.00832631731018016 ,	 7.89028024377241e-010 
	 0.00931250625104278 ,	 7.88469862788078e-010 
	 0.01042846669,	 7.879734206e-010
	 0.01167828806,	 7.875420439e-010
	 0.0130719568,	 7.87176343e-010
	 0.01462934363,	 7.868772521e-010
	 0.01637502642,	 7.866505581e-010
	 0.01833384104,	 7.865093629e-010
	 0.02053151652,	 7.864760388e-010
	 0.02299792922,	 7.865858612e-010
	 0.02576956902,	 7.868931696e-010
	 0.02667167954,	 7.870361801e-010
END
BEGIN
	 0.0083778448862802 ,	 4.11219395349125e-008 
	 0.00846163045520377 ,	 4.11210259027819e-008 
	 0.00854541603407817 ,	 4.11201212737467e-008 
	 0.00862920162275252 ,	 4.11192254721505e-008 
	 0.0110630347,	 4.10964147e-008
	 0.01339295558,	 4.107886902e-008
	 0.01572287999,	 4.106414561e-008
	 0.01805280698,	 4.105146151e-008
	 0.02410209825,	 4.102493858e-008
	 0.02870489896,	 4.100890346e-008
	 0.03330770368,	 4.099526203e-008
	 0.0379105124,	 4.098339287e-008
	 0.04546679919,	 4.096673439e-008
	 0.05653255922,	 4.094678527e-008
	 0.07096326739,	 4.092599258e-008
	 0.08946520574,	 4.090484545e-008
	 0.1133800536,	 4.08832894e-008
	 0.1429561459,	 4.086229448e-008
	 0.1786966974,	 4.084221535e-008
	 0.2228512813,	 4.082253314e-008
	 0.2787309762,	 4.080286205e-008
	 0.3494913652,	 4.078337025e-008
	 0.4382249454,	 4.076444578e-008
	 0.5489860034,	 4.074639458e-008
	 0.6874904654,	 4.072947667e-008
	 0.8612115707,	 4.071404892e-008
	 1.0793645131087373 ,	 4.0700631588474816e-008 
	 1.3533080506852748 ,	 4.0689886455458601e-008 
	 1.6974200042693999 ,	 4.0682565990017513e-008 
	 2.1302155730722383 ,	 4.0679446065652868e-008 
	 2.2815625405287636 ,	 4.0679429932127125e-008 
END
CITIFILE A.01.01
NAME PortSet11/TwoP0_Dsolver_data/first_odd_mode_is_1/most_even_mode_is_1/PMLG4/LS0

VAR freq MAG 31

DATA GAMMA_11[1] RI
DATA Z0_11[1,1] RI
DATA LAMBADAI_11[1,1] RI
DATA Zcir_11[1,1] RI
DATA Ycir_11[1,1] RI

VAR_LIST_BEGIN
	 9244492.989
	 9336937.919
	 9429382.849
	 9521827.779
	 12260563.78
	 14886545.53
	 17512527.27
	 20138509.02
	 27348645.67
	 32344212.25
	 37339778.82
	 42335345.4
	 50889522.24
	 63583130.83
	 80048195.61
	 100957520.6
	 127753271.6
	 160825071.6
	 200968751.9
	 250755487.4
	 313748036.4
	 393355098.3
	 493070711
	 617521452.5
	 773110558.8
	 968081832.4
	 1212528684
	 1518817631
	 1902443935
	 2383043987
	 2500000000
VAR_LIST_END

BEGIN
	 0.005831814933,	 0.3375754423
	 0.005864938544,	 0.3409303098
	 0.005898070486,	 0.3442849026
	 0.005931208715,	 0.3476392227
	 0.006907111008,	 0.4468980612
	 0.007810051719,	 0.541892826
	 0.008663060306,	 0.6367560979
	 0.009461946062,	 0.7315223402
	 0.01141226776,	 0.99140636
	 0.01260838965,	 1.171302136
	 0.01372030456,	 1.351110664
	 0.01477212767,	 1.530850517
	 0.01647438449,	 1.838496512
	 0.01883864881,	 2.294759364
	 0.02169922331,	 2.886222586
	 0.02508563998,	 3.636887626
	 0.02913476624,	 4.598343843
	 0.03381437047,	 5.78437966
	 0.03916132418,	 7.223360976
	 0.04543074823,	 9.007251865
	 0.05295250056,	 11.2634424
	 0.06199023871,	 14.11371698
	 0.07278699504,	 17.6828967
	 0.08568208746,	 22.13639308
	 0.1011622063,	 27.70334806
	 0.1198503605,	 34.67912519
	 0.1424975834,	 43.42605918
	 0.1700193695,	 54.38939038
	 0.2035714838,	 68.12926642
	 0.2446395687,	 85.35941015
	 0.2545145524,	 89.55575608
END
BEGIN
	 47.610825935016706 ,	 -0.65406379561507921 
	 47.608963690621906 ,	 -0.6505667945987037 
	 47.607110317813799 ,	 -0.64713960102122248 
	 47.60526569635941 ,	 -0.64377990222207426 
	 47.554257101891395 ,	 -0.56664033705831907 
	 47.511545987300146 ,	 -0.51649952875925409 
	 47.474650127377622 ,	 -0.47770063728231954 
	 47.443152545729852 ,	 -0.44552668044281946 
	 47.37908688807407 ,	 -0.37737255183358592 
	 47.34851564615424 ,	 -0.34170855351832269 
	 47.325254360793558 ,	 -0.31263852599405906 
	 47.30702953751068 ,	 -0.28857131300653305 
	 47.28350113324035 ,	 -0.25578887697354757 
	 47.259298970454175 ,	 -0.22006537796155998 
	 47.238319376440877 ,	 -0.18722932296866604 
	 47.220756805494062 ,	 -0.15776440198255032 
	 47.206235375496263 ,	 -0.13111388122195858 
	 47.194915400567076 ,	 -0.10786296850238145 
	 47.18637391950719 ,	 -0.087734335842914263 
	 47.17998064218974 ,	 -0.069815287860248681 
	 47.175395338503492 ,	 -0.053557851256401411 
	 47.172480622141563 ,	 -0.038877687823341098 
	 47.171097406144618 ,	 -0.025755505200464743 
	 47.171086209068768 ,	 -0.014057419684069726 
	 47.172332955312676 ,	 -0.0035985536549988937 
	 47.174812483278835 ,	 0.005779684133082285 
	 47.178630932642136 ,	 0.014197211748424669 
	 47.184108200119809 ,	 0.021755831361563858 
	 47.191932710222993 ,	 0.028554425731506815 
	 47.203407523098647 ,	 0.034690810853685222 
	 47.206517385007878 ,	 0.035919476741332744 
END
BEGIN
	 0.005831814933,	 0.3375754423
	 0.005864938544,	 0.3409303098
	 0.005898070486,	 0.3442849026
	 0.005931208715,	 0.3476392227
	 0.006907111008,	 0.4468980612
	 0.007810051719,	 0.541892826
	 0.008663060306,	 0.6367560979
	 0.009461946062,	 0.7315223402
	 0.01141226776,	 0.99140636
	 0.01260838965,	 1.171302136
	 0.01372030456,	 1.351110664
	 0.01477212767,	 1.530850517
	 0.01647438449,	 1.838496512
	 0.01883864881,	 2.294759364
	 0.02169922331,	 2.886222586
	 0.02508563998,	 3.636887626
	 0.02913476624,	 4.598343843
	 0.03381437047,	 5.78437966
	 0.03916132418,	 7.223360976
	 0.04543074823,	 9.007251865
	 0.05295250056,	 11.2634424
	 0.06199023871,	 14.11371698
	 0.07278699504,	 17.6828967
	 0.08568208746,	 22.13639308
	 0.1011622063,	 27.70334806
	 0.1198503605,	 34.67912519
	 0.1424975834,	 43.42605918
	 0.1700193695,	 54.38939038
	 0.2035714838,	 68.12926642
	 0.2446395687,	 85.35941015
	 0.2545145524,	 89.55575608
END
BEGIN
	 0.00132310385690425 ,	 7.34310748188943e-010 
	 0.00132992089234697 ,	 7.34238699842e-010 
	 0.00133673983249757 ,	 7.34167047208468e-010 
	 0.0013435601606353 ,	 7.34095785015202e-010 
	 0.00154405657905301 ,	 7.32144738459828e-010 
	 0.00172790695635716 ,	 7.30533417833274e-010 
	 0.00189911569306275 ,	 7.291487021276e-010 
	 0.00205668918527433 ,	 7.27965115619784e-010 
	 0.00242834784563721 ,	 7.25524772575874e-010 
	 0.00264707223578265 ,	 7.24326692135682e-010 
	 0.00284480956516929 ,	 7.23390008312811e-010 
	 0.00302758982416528 ,	 7.22635505488709e-010 
	 0.00331598842988589 ,	 7.21626567844303e-010 
	 0.00370370574761689 ,	 7.20535559027269e-010 
