CITIFILE A.01.01
#Momentum: B.12.00.024 (*) built: Jan 14 2016 
#Momentum Date and Time: Fri Apr 20 11:15:53 2018

NAME PortSet1


CONSTANT NBR_OF_PORTS 22

VAR freq MAG 2

DATA GAMMA_1[1] RI
DATA Z0_1[1,1] RI
DATA LAMBADAI_1[1,1] RI

VAR_LIST_BEGIN
	 200000000
	 3400000000
VAR_LIST_END

BEGIN
	 0 ,	 0 
	 0 ,	 0 
END
BEGIN
	 50 ,	 0 
	 50 ,	 0 
END
BEGIN
	 0 ,	 0 
	 0 ,	 0 
END
CITIFILE A.01.01
NAME PortSet2

VAR freq MAG 2

DATA GAMMA_2[1] RI
DATA Z0_2[1,1] RI
DATA LAMBADAI_2[1,1] RI

VAR_LIST_BEGIN
	 200000000
	 3400000000
VAR_LIST_END

BEGIN
	 0 ,	 0 
	 0 ,	 0 
END
BEGIN
	 50 ,	 0 
	 50 ,	 0 
END
BEGIN
	 0 ,	 0 
	 0 ,	 0 
END
CITIFILE A.01.01
NAME PortSet3

VAR freq MAG 2

DATA GAMMA_3[1] RI
DATA Z0_3[1,1] RI
DATA LAMBADAI_3[1,1] RI

VAR_LIST_BEGIN
	 200000000
	 3400000000
VAR_LIST_END

BEGIN
	 0 ,	 0 
	 0 ,	 0 
END
BEGIN
	 50 ,	 0 
	 50 ,	 0 
END
BEGIN
	 0 ,	 0 
	 0 ,	 0 
END
CITIFILE A.01.01
NAME PortSet4

VAR freq MAG 2

DATA GAMMA_4[1] RI
DATA Z0_4[1,1] RI
DATA LAMBADAI_4[1,1] RI

VAR_LIST_BEGIN
	 200000000
	 3400000000
VAR_LIST_END

BEGIN
	 0 ,	 0 
	 0 ,	 0 
END
BEGIN
	 50 ,	 0 
	 50 ,	 0 
END
BEGIN
	 0 ,	 0 
	 0 ,	 0 
END
CITIFILE A.01.01
NAME PortSet5

VAR freq MAG 2

DATA GAMMA_5[1] RI
DATA Z0_5[1,1] RI
DATA LAMBADAI_5[1,1] RI

VAR_LIST_BEGIN
	 200000000
	 3400000000
VAR_LIST_END

BEGIN
	 0 ,	 0 
	 0 ,	 0 
END
BEGIN
	 50 ,	 0 
	 50 ,	 0 
END
BEGIN
	 0 ,	 0 
	 0 ,	 0 
END
CITIFILE A.01.01
NAME PortSet6

VAR freq MAG 2

DATA GAMMA_6[1] RI
DATA Z0_6[1,1] RI
DATA LAMBADAI_6[1,1] RI

VAR_LIST_BEGIN
	 200000000
	 3400000000
VAR_LIST_END

BEGIN
	 0 ,	 0 
	 0 ,	 0 
END
BEGIN
	 50 ,	 0 
	 50 ,	 0 
END
BEGIN
	 0 ,	 0 
	 0 ,	 0 
END
CITIFILE A.01.01
NAME PortSet7

VAR freq MAG 2

DATA GAMMA_7[1] RI
DATA Z0_7[1,1] RI
DATA LAMBADAI_7[1,1] RI

VAR_LIST_BEGIN
	 200000000
	 3400000000
VAR_LIST_END

BEGIN
	 0 ,	 0 
	 0 ,	 0 
END
BEGIN
	 50 ,	 0 
	 50 ,	 0 
END
BEGIN
	 0 ,	 0 
	 0 ,	 0 
END
CITIFILE A.01.01
NAME PortSet8

VAR freq MAG 2

DATA GAMMA_8[1] RI
DATA Z0_8[1,1] RI
DATA LAMBADAI_8[1,1] RI

VAR_LIST_BEGIN
	 200000000
	 3400000000
VAR_LIST_END

BEGIN
	 0 ,	 0 
	 0 ,	 0 
END
BEGIN
	 50 ,	 0 
	 50 ,	 0 
END
BEGIN
	 0 ,	 0 
	 0 ,	 0 
END
CITIFILE A.01.01
NAME PortSet9/TwoP0_Dsolver_data/first_odd_mode_is_1/most_even_mode_is_1/PMLG4/LS0

VAR freq MAG 9

DATA GAMMA_9[1] RI
DATA Z0_9[1,1] RI
DATA LAMBADAI_9[1,1] RI
DATA Zcir_9[1,1] RI
DATA Ycir_9[1,1] RI

VAR_LIST_BEGIN
	 200000000
	 202000000
	 204000000
	 206000000
	 412000000
	 824000000
	 1648000000
	 2982255679
	 3400000000
VAR_LIST_END

BEGIN
	 0.005811783378,	 7.114738178
	 0.005869940839,	 7.185852756
	 0.005928098845,	 7.256967088
	 0.005986257495,	 7.328081179
	 0.01197994501,	 14.65213816
	 0.02399190444,	 29.30189434
	 0.04815547611,	 58.6333823
	 0.08781248391,	 106.280247
	 0.100383762,	 121.2458846
END
BEGIN
	 36.343081024874778 ,	 0.029687160593307949 
	 36.343263846999299 ,	 0.029687645695657076 
	 36.343444798473328 ,	 0.029688126922583231 
	 36.343623915472939 ,	 0.029688603865638884 
	 36.356124488913323 ,	 0.029725380626219766 
	 36.368172867468878 ,	 0.02977728432875815 
	 36.382184623364964 ,	 0.029879766307910088 
	 36.408770234143233 ,	 0.030079931491684753 
	 36.420206734568417 ,	 0.030150669881521708 
END
BEGIN
	 0.005811783378,	 7.114738178
	 0.005869940839,	 7.185852756
	 0.005928098845,	 7.256967088
	 0.005986257495,	 7.328081179
	 0.01197994501,	 14.65213816
	 0.02399190444,	 29.30189434
	 0.04815547611,	 58.6333823
	 0.08781248391,	 106.280247
	 0.100383762,	 121.2458846
END
BEGIN
	 4.61699268736442e-009 ,	 5.4618587279014e-010 
	 4.66654964301726e-009 ,	 5.46186127051593e-010 
	 4.7066481346017e-009 ,	 5.46186383504319e-010 
	 4.75631143324884e-009 ,	 5.46186642139064e-010 
	 1.05869070686753e-008 ,	 5.46224486359e-010 
	 2.89033689265458e-008 ,	 5.46361091431032e-010 
	 1.31822672912001e-007 ,	 5.46847599593036e-010 
	 6.42372328234567e-007 ,	 5.48155140442645e-010 
	 9.36273078394959e-007 ,	 5.4868147500911e-010 
END
BEGIN
	 0.1204886731,	 5.868908852e-008
	 0.1216937689,	 5.868852538e-008
	 0.1228988711,	 5.868796852e-008
	 0.12410398,	 5.868741783e-008
	 0.2482764846,	 5.865113031e-008
	 0.4970508981,	 5.862693378e-008
	 0.99726616157135861 ,	 5.8633948389701076e-008 
	 1.817164074443711 ,	 5.8688341576185456e-008 
	 2.0766362751351877 ,	 5.8707805534508481e-008 
END
CITIFILE A.01.01
NAME PortSet10/TwoP0_Dsolver_data/first_odd_mode_is_1/most_even_mode_is_1/PMLG4/LS0

VAR freq MAG 9

DATA GAMMA_10[1] RI
DATA Z0_10[1,1] RI
DATA LAMBADAI_10[1,1] RI
DATA Zcir_10[1,1] RI
DATA Ycir_10[1,1] RI

VAR_LIST_BEGIN
	 200000000
	 202000000
	 204000000
	 206000000
	 412000000
	 824000000
	 1648000000
	 3001993610
	 3400000000
VAR_LIST_END

BEGIN
	 0.005574446694,	 6.980307697
	 0.005630225364,	 7.050078456
	 0.005686004481,	 7.119848955
	 0.005741784106,	 7.189619199
	 0.01148970582,	 14.37513783
	 0.02300440704,	 28.74649476
	 0.04614219794,	 57.51273745
	 0.0845991646,	 104.9055241
	 0.09602615406,	 118.8740821
END
BEGIN
	 48.239493708487515 ,	 0.038523709519963131 
	 48.239734147074905 ,	 0.038524311921647167 
	 48.239972175526965 ,	 0.038524909206213792 
	 48.240207841399432 ,	 0.038525501058089648 
	 48.256836683149089 ,	 0.038570340171126996 
	 48.273504005973827 ,	 0.038630572040235303 
	 48.293589878258636 ,	 0.038744718865866529 
	 48.329331484259662 ,	 0.038971268631867791 
	 48.342927410510242 ,	 0.039047385804387977 
END
BEGIN
	 0.005574446694,	 6.980307697
	 0.005630225364,	 7.050078456
	 0.005686004481,	 7.119848955
	 0.005741784106,	 7.189619199
	 0.01148970582,	 14.37513783
	 0.02300440704,	 28.74649476
	 0.04614219794,	 57.51273745
	 0.0845991646,	 104.9055241
	 0.09602615406,	 118.8740821
END
BEGIN
	 3.02634535780024e-009 ,	 7.11274261103173e-010 
	 3.06120729947571e-009 ,	 7.11274545742474e-010 
	 3.08811453036788e-009 ,	 7.11274832811009e-010 
	 3.12316736567671e-009 ,	 7.11275122319274e-010 
	 7.70116923964198e-009 ,	 7.11317399792271e-010 
	 2.60100708666423e-008 ,	 7.11469504943807e-010 
	 1.52734615110721e-007 ,	 7.1201001903625e-010 
	 8.48643236283156e-007 ,	 7.13492098810717e-010 
	 1.22965951175787e-006 ,	 7.14053894344478e-010 
END
BEGIN
	 0.08706797657,	 4.338024855e-008
	 0.08793875197,	 4.337983347e-008
	 0.08880953059,	 4.337942288e-008
	 0.08968031245,	 4.33790167e-008
	 0.17939456,	 4.335170236e-008
	 0.3590547273,	 4.333103511e-008
	 0.7198856644,	 4.332789027e-008
	 1.3188598514075736 ,	 4.3353882992793058e-008 
	 1.4965638827384538 ,	 4.3363617669184163e-008 
END
CITIFILE A.01.01
NAME PortSet11/TwoP0_Dsolver_data/first_odd_mode_is_1/most_even_mode_is_1/PMLG4/LS0

VAR freq MAG 9

DATA GAMMA_10[1] RI
DATA Z0_10[1,1] RI
DATA LAMBADAI_10[1,1] RI
DATA Zcir_10[1,1] RI
DATA Ycir_10[1,1] RI

VAR_LIST_BEGIN
	 200000000
	 202000000
	 204000000
	 206000000
	 412000000
	 824000000
	 1648000000
	 3001993610
	 3400000000
VAR_LIST_END

BEGIN
	 0.005574446694,	 6.980307697
	 0.005630225364,	 7.050078456
	 0.005686004481,	 7.119848955
	 0.005741784106,	 7.189619199
	 0.01148970582,	 14.37513783
	 0.02300440704,	 28.74649476
	 0.04614219794,	 57.51273745
	 0.0845991646,	 104.9055241
	 0.09602615406,	 118.8740821
END
BEGIN
	 48.239493708487515 ,	 0.038523709519963131 
	 48.239734147074905 ,	 0.038524311921647167 
	 48.239972175526965 ,	 0.038524909206213792 
	 48.240207841399432 ,	 0.038525501058089648 
	 48.256836683149089 ,	 0.038570340171126996 
	 48.273504005973827 ,	 0.038630572040235303 
	 48.293589878258636 ,	 0.038744718865866529 
	 48.329331484259662 ,	 0.038971268631867791 
	 48.342927410510242 ,	 0.039047385804387977 
END
BEGIN
	 0.005574446694,	 6.980307697
	 0.005630225364,	 7.050078456
	 0.005686004481,	 7.119848955
	 0.005741784106,	 7.189619199
	 0.01148970582,	 14.37513783
	 0.02300440704,	 28.74649476
	 0.04614219794,	 57.51273745
	 0.0845991646,	 104.9055241
	 0.09602615406,	 118.8740821
END
BEGIN
	 3.02634535780024e-009 ,	 7.11274261103173e-010 
	 3.06120729947571e-009 ,	 7.11274545742474e-010 
	 3.08811453036788e-009 ,	 7.11274832811009e-010 
	 3.12316736567671e-009 ,	 7.11275122319274e-010 
	 7.70116923964198e-009 ,	 7.11317399792271e-010 
	 2.60100708666423e-008 ,	 7.11469504943807e-010 
	 1.52734615110721e-007 ,	 7.1201001903625e-010 
	 8.48643236283156e-007 ,	 7.13492098810717e-010 
	 1.22965951175787e-006 ,	 7.14053894344478e-010 
END
BEGIN
	 0.08706797657,	 4.338024855e-008
	 0.08793875197,	 4.337983347e-008
	 0.08880953059,	 4.337942288e-008
	 0.08968031245,	 4.33790167e-008
	 0.17939456,	 4.335170236e-008
	 0.3590547273,	 4.333103511e-008
	 0.7198856644,	 4.332789027e-008
	 1.3188598514075736 ,	 4.3353882992793058e-008 
	 1.4965638827384538 ,	 4.3363617669184163e-008 
END
CITIFILE A.01.01
NAME PortSet12/TwoP0_Dsolver_data/first_odd_mode_is_1/most_even_mode_is_1/PMLG4/LS0

VAR freq MAG 9

DATA GAMMA_9[1] RI
DATA Z0_9[1,1] RI
DATA LAMBADAI_9[1,1] RI
DATA Zcir_9[1,1] RI
DATA Ycir_9[1,1] RI

VAR_LIST_BEGIN
	 200000000
	 202000000
	 204000000
	 206000000
	 412000000
	 824000000
	 1648000000
	 2982255679
	 3400000000
VAR_LIST_END

BEGIN
	 0.005811783378,	 7.114738178
	 0.005869940839,	 7.185852756
	 0.005928098845,	 7.256967088
	 0.005986257495,	 7.328081179
	 0.01197994501,	 14.65213816
	 0.02399190444,	 29.30189434
	 0.04815547611,	 58.6333823
	 0.08781248391,	 106.280247
	 0.100383762,	 121.2458846
END
BEGIN
	 36.343081024874778 ,	 0.029687160593307949 
	 36.343263846999299 ,	 0.029687645695657076 
	 36.343444798473328 ,	 0.029688126922583231 
	 36.343623915472939 ,	 0.029688603865638884 
	 36.356124488913323 ,	 0.029725380626219766 
	 36.368172867468878 ,	 0.02977728432875815 
	 36.382184623364964 ,	 0.029879766307910088 
	 36.408770234143233 ,	 0.030079931491684753 
	 36.420206734568417 ,	 0.030150669881521708 
END
BEGIN
	 0.005811783378,	 7.114738178
	 0.005869940839,	 7.185852756
	 0.005928098845,	 7.256967088
	 0.005986257495,	 7.328081179
	 0.01197994501,	 14.65213816
	 0.02399190444,	 29.30189434
	 0.04815547611,	 58.6333823
	 0.08781248391,	 106.280247
	 0.100383762,	 121.2458846
END
BEGIN
	 4.61699268736442e-009 ,	 5.4618587279014e-010 
	 4.66654964301726e-009 ,	 5.46186127051593e-010 
	 4.7066481346017e-009 ,	 5.46186383504319e-010 
	 4.75631143324884e-009 ,	 5.46186642139064e-010 
	 1.05869070686753e-008 ,	 5.46224486359e-010 
	 2.89033689265458e-008 ,	 5.46361091431032e-010 
	 1.31822672912001e-007 ,	 5.46847599593036e-010 
	 6.42372328234567e-007 ,	 5.48155140442645e-010 
	 9.36273078394959e-007 ,	 5.4868147500911e-010 
END
BEGIN
	 0.1204886731,	 5.868908852e-008
	 0.1216937689,	 5.868852538e-008
	 0.1228988711,	 5.868796852e-008
	 0.12410398,	 5.868741783e-008
	 0.2482764846,	 5.865113031e-008
	 0.4970508981,	 5.862693378e-008
	 0.99726616157135861 ,	 5.8633948389701076e-008 
	 1.817164074443711 ,	 5.8688341576185456e-008 
	 2.0766362751351877 ,	 5.8707805534508481e-008 
END
CITIFILE A.01.01
NAME PortSet13/TwoP0_Dsolver_data/first_odd_mode_is_1/most_even_mode_is_1/PMLG4/LS0

VAR freq MAG 9

DATA GAMMA_13[1] RI
DATA Z0_13[1,1] RI
DATA LAMBADAI_13[1,1] RI
DATA Zcir_13[1,1] RI
DATA Ycir_13[1,1] RI

VAR_LIST_BEGIN
	 200000000
	 202000000
	 204000000
	 206000000
	 412000000
	 824000000
	 1648000000
	 3004255198
	 3400000000
VAR_LIST_END

BEGIN
	 0.005545805223,	 6.964110761
	 0.005601296892,	 7.033719627
	 0.005656788997,	 7.103328232
	 0.005712281595,	 7.17293658
	 0.01143056274,	 14.34176814
	 0.02288537102,	 28.67961371
	 0.04589993504,	 57.37792
	 0.08420639312,	 104.734601
	 0.09550270745,	 118.5892049
END
BEGIN
	 49.88090677425452 ,	 0.039722064523338589 
	 49.881155030995515 ,	 0.039722682453164682 
	 49.881400804602848 ,	 0.039723295097049513 
	 49.881644144162664 ,	 0.039723902156723584 
	 49.898834161731564 ,	 0.03976980044163142 
	 49.91613633010784 ,	 0.039831086687827276 
	 49.937088178168018 ,	 0.039946581961495142 
	 49.974213336853644 ,	 0.040176039314951124 
	 49.988152688919911 ,	 0.040252646827119348 
END
BEGIN
	 0.005545805223,	 6.964110761
	 0.005601296892,	 7.033719627
	 0.005656788997,	 7.103328232
	 0.005712281595,	 7.17293658
	 0.01143056274,	 14.34176814
	 0.02288537102,	 28.67961371
	 0.04589993504,	 57.37792
	 0.08420639312,	 104.734601
	 0.09550270745,	 118.5892049
END
BEGIN
	 2.48537165110571e-009 ,	 7.33769731858726e-010 
	 2.51492029122464e-009 ,	 7.33770020271093e-010 
	 2.53680232159201e-009 ,	 7.33770311143239e-010 
	 2.5665547329556e-009 ,	 7.33770604487919e-010 
	 6.62934827280921e-009 ,	 7.3381343624836e-010 
	 2.42087506954931e-008 ,	 7.33967497219425e-010 
	 1.52149313695747e-007 ,	 7.34514866104442e-010 
	 8.67483191318436e-007 ,	 7.36019146528065e-010 
	 1.25962764226627e-006 ,	 7.36585411724818e-010 
END
BEGIN
	 0.08377026433,	 4.185540447e-008
	 0.0846080534,	 4.185500429e-008
	 0.0854458454,	 4.185460843e-008
	 0.08628364036,	 4.18542168e-008
	 0.1725983381,	 4.182782574e-008
	 0.3454423735,	 4.180760894e-008
	 0.6925382596,	 4.180368648e-008
	 1.269528858645137 ,	 4.1827084421564627e-008 
	 1.4394194041593005 ,	 4.1835922409730185e-008 
END
CITIFILE A.01.01
NAME PortSet14/TwoP0_Dsolver_data/first_odd_mode_is_1/most_even_mode_is_1/PMLG4/LS0

VAR freq MAG 9

DATA GAMMA_14[1] RI
DATA Z0_14[1,1] RI
DATA LAMBADAI_14[1,1] RI
DATA Zcir_14[1,1] RI
DATA Ycir_14[1,1] RI

VAR_LIST_BEGIN
	 200000000
	 202000000
	 204000000
	 206000000
	 412000000
	 824000000
	 1648000000
	 3006576549
	 3400000000
VAR_LIST_END

BEGIN
	 0.005516128813,	 6.947326778
	 0.005571323121,	 7.016767885
	 0.005626517855,	 7.086208731
	 0.005681713068,	 7.155649319
	 0.01136928587,	 14.30718986
	 0.02276205827,	 28.61031521
	 0.04564904906,	 57.23825362
	 0.08379843499,	 104.5564281
	 0.09496083227,	 118.2941702
END
BEGIN
	 51.640778729741712 ,	 0.041002305111932202 
	 51.641035338432019 ,	 0.041002939546054523 
	 51.641289386020695 ,	 0.041003568514197508 
	 51.641540923150679 ,	 0.04100419173697098 
	 51.659330444152218 ,	 0.041051214080520843 
	 51.677311445057221 ,	 0.041113610812643364 
	 51.699193717996337 ,	 0.041230496032848736 
	 51.737821984499462 ,	 0.041462909582270217 
	 51.752128296618245 ,	 0.041539995812750981 
END
BEGIN
	 0.005516128813,	 6.947326778
	 0.005571323121,	 7.016767885
	 0.005626517855,	 7.086208731
	 0.005681713068,	 7.155649319
	 0.01136928587,	 14.30718986
	 0.02276205827,	 28.61031521
	 0.04564904906,	 57.23825362
	 0.08379843499,	 104.5564281
	 0.09496083227,	 118.2941702
END
BEGIN
	 2.05772173053013e-009 ,	 7.57827379039305e-010 
	 2.08312390004729e-009 ,	 7.57827671392297e-010 
	 2.10117280833536e-009 ,	 7.57827966237711e-010 
	 2.12678977304804e-009 ,	 7.57828263588383e-010 
	 5.79239819542381e-009 ,	 7.57871673752409e-010 
	 2.28528237293003e-008 ,	 7.58027777783834e-010 
	 1.52473610274921e-007 ,	 7.58582321320979e-010 
	 8.88666179981942e-007 ,	 7.60109914861157e-010 
	 1.28962177333228e-006 ,	 7.60680745531862e-010 
END
BEGIN
	 0.08048248465,	 4.033157301e-008
	 0.0812873871,	 4.033118775e-008
	 0.08209229221,	 4.033080662e-008
	 0.08289720002,	 4.033042956e-008
	 0.1658226901,	 4.030496629e-008
	 0.3318718215,	 4.028521907e-008
	 0.6652777931,	 4.028056971e-008
	 1.2203132928826141 ,	 4.0301437036920394e-008 
	 1.3824682741517491 ,	 4.0309407101705901e-008 
END
CITIFILE A.01.01
NAME PortSet15/TwoP0_Dsolver_data/first_odd_mode_is_1/most_even_mode_is_1/PMLG4/LS0

VAR freq MAG 9

DATA GAMMA_15[1] RI
DATA Z0_15[1,1] RI
DATA LAMBADAI_15[1,1] RI
DATA Zcir_15[1,1] RI
DATA Ycir_15[1,1] RI

VAR_LIST_BEGIN
	 200000000
	 202000000
	 204000000
	 206000000
	 412000000
	 824000000
	 1648000000
	 2982255679
	 3400000000
VAR_LIST_END

BEGIN
	 0.005811783378,	 7.114738178
	 0.005869940839,	 7.185852756
	 0.005928098845,	 7.256967088
	 0.005986257495,	 7.328081179
	 0.01197994501,	 14.65213816
	 0.02399190444,	 29.30189434
	 0.04815547611,	 58.6333823
	 0.08781248391,	 106.280247
	 0.100383762,	 121.2458846
END
BEGIN
	 36.343081024874778 ,	 0.029687160593307949 
	 36.343263846999299 ,	 0.029687645695657076 
	 36.343444798473328 ,	 0.029688126922583231 
	 36.343623915472939 ,	 0.029688603865638884 
	 36.356124488913323 ,	 0.029725380626219766 
	 36.368172867468878 ,	 0.02977728432875815 
	 36.382184623364964 ,	 0.029879766307910088 
	 36.408770234143233 ,	 0.030079931491684753 
	 36.420206734568417 ,	 0.030150669881521708 
END
BEGIN
	 0.005811783378,	 7.114738178
	 0.005869940839,	 7.185852756
	 0.005928098845,	 7.256967088
	 0.005986257495,	 7.328081179
	 0.01197994501,	 14.65213816
	 0.02399190444,	 29.30189434
	 0.04815547611,	 58.6333823
	 0.08781248391,	 106.280247
	 0.100383762,	 121.2458846
END
BEGIN
	 4.61699268736442e-009 ,	 5.4618587279014e-010 
	 4.66654964301726e-009 ,	 5.46186127051593e-010 
	 4.7066481346017e-009 ,	 5.46186383504319e-010 
	 4.75631143324884e-009 ,	 5.46186642139064e-010 
	 1.05869070686753e-008 ,	 5.46224486359e-010 
	 2.89033689265458e-008 ,	 5.46361091431032e-010 
	 1.31822672912001e-007 ,	 5.46847599593036e-010 
	 6.42372328234567e-007 ,	 5.48155140442645e-010 
	 9.36273078394959e-007 ,	 5.4868147500911e-010 
END
BEGIN
	 0.1204886731,	 5.868908852e-008
	 0.1216937689,	 5.868852538e-008
	 0.1228988711,	 5.868796852e-008
	 0.12410398,	 5.868741783e-008
	 0.2482764846,	 5.865113031e-008
	 0.4970508981,	 5.862693378e-008
	 0.99726616157135861 ,	 5.8633948389701076e-008 
	 1.817164074443711 ,	 5.8688341576185456e-008 
	 2.0766362751351877 ,	 5.8707805534508481e-008 
END
CITIFILE A.01.01
NAME PortSet16/TwoP0_Dsolver_data/first_odd_mode_is_1/most_even_mode_is_1/PMLG4/LS0

VAR freq MAG 9

DATA GAMMA_16[1] RI
DATA Z0_16[1,1] RI
DATA LAMBADAI_16[1,1] RI
DATA Zcir_16[1,1] RI
DATA Ycir_16[1,1] RI

VAR_LIST_BEGIN
	 200000000
	 202000000
	 204000000
	 206000000
	 412000000
	 824000000
	 1648000000
	 2993528136
	 3400000000
VAR_LIST_END

BEGIN
	 0.005679392121,	 7.039676097
	 0.005736222508,	 7.11004029
	 0.005793053381,	 7.180404228
	 0.005849884819,	 7.250767915
	 0.01170644272,	 14.49745938
	 0.02344079039,	 28.99170164
	 0.04703104713,	 58.00723797
	 0.0860303211,	 105.5236464
	 0.09794833297,	 119.9197785
END
BEGIN
	 42.642882789544252 ,	 0.034402706493523783 
	 42.643096341484672 ,	 0.034403254858719472 
	 42.643307734756739 ,	 0.034403798687426872 
	 42.643517011304404 ,	 0.034404337610738737 
	 42.65821702133546 ,	 0.034445477055438739 
	 42.672711576768002 ,	 0.03450195734246253 
	 42.689876546742163 ,	 0.034611079758449986 
	 42.721061199140948 ,	 0.034826507484142032 
	 42.733554602228388 ,	 0.03490054775786864 
END
BEGIN
	 0.005679392121,	 7.039676097
	 0.005736222508,	 7.11004029
	 0.005793053381,	 7.180404228
	 0.005849884819,	 7.250767915
	 0.01170644272,	 14.49745938
	 0.02344079039,	 28.99170164
	 0.04703104713,	 58.00723797
	 0.0860303211,	 105.5236464
	 0.09794833297,	 119.9197785
END
BEGIN
	 4.6238684029646e-009 ,	 6.34101856376185e-010 
	 4.67414513918938e-009 ,	 6.34102127350116e-010 
	 4.71558832845602e-009 ,	 6.34102400650317e-010 
	 4.76601558663681e-009 ,	 6.34102676269126e-010 
	 1.08024010706583e-008 ,	 6.34142953270008e-010 
	 3.08821982014651e-008 ,	 6.34288040459788e-010 
	 1.4985788003314e-007 ,	 6.34804018964133e-010 
	 7.60623029507149e-007 ,	 6.36206746529597e-010 
	 1.10020110050818e-006 ,	 6.36752579768913e-010 
END
BEGIN
	 0.1003492375,	 4.949101026e-008
	 0.1013528663,	 4.949053572e-008
	 0.1023564996,	 4.949006638e-008
	 0.1033601372,	 4.948960213e-008
	 0.2067668045,	 4.945864096e-008
	 0.4138851316,	 4.943635546e-008
	 0.8300685922,	 4.943679064e-008
	 1.5172352224038295 ,	 4.9473723317559307e-008 
	 1.7268986918686271 ,	 4.9487220461111272e-008 
END
CITIFILE A.01.01
NAME PortSet17/TwoP0_Dsolver_data/first_odd_mode_is_1/most_even_mode_is_1/PMLG4/LS0

VAR freq MAG 9

DATA GAMMA_17[1] RI
DATA Z0_17[1,1] RI
DATA LAMBADAI_17[1,1] RI
DATA Zcir_17[1,1] RI
DATA Ycir_17[1,1] RI

VAR_LIST_BEGIN
	 200000000
	 202000000
	 204000000
	 206000000
	 412000000
	 824000000
	 1626096135
	 2888072352
	 3400000000
VAR_LIST_END

BEGIN
	 0.006321771364,	 7.407677287
	 0.006385048225,	 7.481722344
	 0.006448326077,	 7.555767238
	 0.006511605029,	 7.629811973
	 0.01303544009,	 15.25632741
	 0.02612804332,	 30.5162916
