CITIFILE A.01.01
#Momentum: B.12.00.024 (*) built: Jan 14 2016 
#Momentum Date and Time: Fri Apr 20 11:16:52 2018

NAME Momentum.SP

# project: proj  [ S_smoothed = S_calculated * smoothing_factor ]

CONSTANT NORMALIZATION 1.003303462

VAR freq MAG 33

DATA smoothing_factor RI

VAR_LIST_BEGIN
	 200000000
	 300000000
	 400000000
	 500000000
	 600000000
	 700000000
	 800000000
	 900000000
	 1000000000
	 1100000000
	 1200000000
	 1300000000
	 1400000000
	 1500000000
	 1600000000
	 1700000000
	 1800000000
	 1900000000
	 2000000000
	 2100000000
	 2200000000
	 2300000000
	 2400000000
	 2500000000
	 2600000000
	 2700000000
	 2800000000
	 2900000000
	 3000000000
	 3100000000
	 3200000000
	 3300000000
	 3400000000
VAR_LIST_END

BEGIN
	 0.99997311700000002 ,	 0 
	 0.99995726000000007 ,	 0 
	 0.99993615300000005 ,	 0 
	 0.99990978300000011 ,	 0 
	 0.99987813900000011 ,	 0 
	 0.99984120100000007 ,	 0 
	 0.99979894100000011 ,	 0 
	 0.99975131700000008 ,	 0 
	 0.99969827500000008 ,	 0 
	 0.99963975100000002 ,	 0 
	 0.99957567600000008 ,	 0 
	 0.99950597900000004 ,	 0 
	 0.99943059000000001 ,	 0 
	 0.99934950600000005 ,	 0 
	 0.99926281900000002 ,	 0 
	 0.99917037900000005 ,	 0 
	 0.99907216300000001 ,	 0 
	 0.99896817000000004 ,	 0 
	 0.99885839800000009 ,	 0 
	 0.99874285700000009 ,	 0 
	 0.99862156200000007 ,	 0 
	 0.9984945850000001 ,	 0 
	 0.9983619210000001 ,	 0 
	 0.99822348900000002 ,	 0 
	 0.99807925700000011 ,	 0 
	 0.99792918000000008 ,	 0 
	 0.99777318800000003 ,	 0 
	 0.99761117700000002 ,	 0 
	 0.99744302400000007 ,	 0 
	 0.99726860000000006 ,	 0 
	 0.99708780000000008 ,	 0 
	 0.99690063900000003 ,	 0 
	 0.99670741500000004 ,	 0 
END
