CITIFILE A.01.01
#Momentum: B.11.20.082 (*) 2014.01 Feb 25 2014 
#Momentum Date and Time: Tue Jun 23 16:06:27 2020

NAME PortSet1

CONSTANT NBR_OF_PORTS 22

VAR freq MAG 2

DATA GAMMA_1[1] RI
DATA Z0_1[1,1] RI
DATA LAMBADAI_1[1,1] RI

VAR_LIST_BEGIN
	 9244492.989
	 2500000000
VAR_LIST_END

BEGIN
	 0,	 0
	 0,	 0
END
BEGIN
	 50 ,	 0 
	 50 ,	 0 
END
BEGIN
	 0,	 0
	 0,	 0
END
CITIFILE A.01.01
NAME PortSet2

VAR freq MAG 2

DATA GAMMA_2[1] RI
DATA Z0_2[1,1] RI
DATA LAMBADAI_2[1,1] RI

VAR_LIST_BEGIN
	 9244492.989
	 2500000000
VAR_LIST_END

BEGIN
	 0,	 0
	 0,	 0
END
BEGIN
	 50 ,	 0 
	 50 ,	 0 
END
BEGIN
	 0,	 0
	 0,	 0
END
CITIFILE A.01.01
NAME PortSet3

VAR freq MAG 2

DATA GAMMA_3[1] RI
DATA Z0_3[1,1] RI
DATA LAMBADAI_3[1,1] RI

VAR_LIST_BEGIN
	 9244492.989
	 2500000000
VAR_LIST_END

BEGIN
	 0,	 0
	 0,	 0
END
BEGIN
	 50 ,	 0 
	 50 ,	 0 
END
BEGIN
	 0,	 0
	 0,	 0
END
CITIFILE A.01.01
NAME PortSet4

VAR freq MAG 2

DATA GAMMA_4[1] RI
DATA Z0_4[1,1] RI
DATA LAMBADAI_4[1,1] RI

VAR_LIST_BEGIN
	 9244492.989
	 2500000000
VAR_LIST_END

BEGIN
	 0,	 0
	 0,	 0
END
BEGIN
	 50 ,	 0 
	 50 ,	 0 
END
BEGIN
	 0,	 0
	 0,	 0
END
CITIFILE A.01.01
NAME PortSet5

VAR freq MAG 2

DATA GAMMA_5[1] RI
DATA Z0_5[1,1] RI
DATA LAMBADAI_5[1,1] RI

VAR_LIST_BEGIN
	 9244492.989
	 2500000000
VAR_LIST_END

BEGIN
	 0,	 0
	 0,	 0
END
BEGIN
	 50 ,	 0 
	 50 ,	 0 
END
BEGIN
	 0,	 0
	 0,	 0
END
CITIFILE A.01.01
NAME PortSet6

VAR freq MAG 2

DATA GAMMA_6[1] RI
DATA Z0_6[1,1] RI
DATA LAMBADAI_6[1,1] RI

VAR_LIST_BEGIN
	 9244492.989
	 2500000000
VAR_LIST_END

BEGIN
	 0,	 0
	 0,	 0
END
BEGIN
	 50 ,	 0 
	 50 ,	 0 
END
BEGIN
	 0,	 0
	 0,	 0
END
CITIFILE A.01.01
NAME PortSet7

VAR freq MAG 2

DATA GAMMA_7[1] RI
DATA Z0_7[1,1] RI
DATA LAMBADAI_7[1,1] RI

VAR_LIST_BEGIN
	 9244492.989
	 2500000000
VAR_LIST_END

BEGIN
	 0,	 0
	 0,	 0
END
BEGIN
	 50 ,	 0 
	 50 ,	 0 
END
BEGIN
	 0,	 0
	 0,	 0
END
CITIFILE A.01.01
NAME PortSet8

VAR freq MAG 2

DATA GAMMA_8[1] RI
DATA Z0_8[1,1] RI
DATA LAMBADAI_8[1,1] RI

VAR_LIST_BEGIN
	 9244492.989
	 2500000000
VAR_LIST_END

BEGIN
	 0,	 0
	 0,	 0
END
BEGIN
	 50 ,	 0 
	 50 ,	 0 
END
BEGIN
	 0,	 0
	 0,	 0
END
CITIFILE A.01.01
NAME PortSet9/TwoP0_Dsolver_data/first_odd_mode_is_1/most_even_mode_is_1/PMLG4/LS0

VAR freq MAG 31

DATA GAMMA_9[1] RI
DATA Z0_9[1,1] RI
DATA LAMBADAI_9[1,1] RI
DATA Zcir_9[1,1] RI
DATA Ycir_9[1,1] RI

VAR_LIST_BEGIN
	 9244492.989
	 9336937.919
	 9429382.849
	 9521827.779
	 12207196.38
	 14777907.84
	 17348619.3
	 19919330.76
	 26593772.2
	 31672232.56
	 36750692.92
	 41829153.29
	 50166291.22
	 62375530.76
	 78297348.79
	 98710863.57
	 125096038.4
	 157726174.2
	 197155211.3
	 245862531.1
	 307495769.7
	 385525691.6
	 483344152.2
	 605387032.9
	 757891371
	 948974538.4
	 1188572532
	 1488807578
	 1864826743
	 2335825467
	 2500000000
VAR_LIST_END

BEGIN
	 0.005963760117,	 0.3352450878
	 0.005997553868,	 0.338576548
	 0.006031360743,	 0.3419077244
	 0.006065178514,	 0.3452386187
	 0.00704333117,	 0.4418808986
	 0.007949227742,	 0.5342194794
	 0.008806488412,	 0.6264259665
	 0.009610080366,	 0.7185344881
	 0.011472572,	 0.9573866213
	 0.01272603049,	 1.138951344
	 0.0138847715,	 1.320421005
	 0.01497678141,	 1.501817422
	 0.01666808184,	 1.799479265
	 0.0189859184,	 2.235143701
	 0.02180560094,	 2.802935974
	 0.02517322802,	 3.53046759
	 0.02922761238,	 4.470287442
	 0.03391295331,	 5.63193111
	 0.03923265214,	 7.034946464
	 0.04543617277,	 8.76736316
	 0.05286892799,	 10.95865455
	 0.06180210877,	 13.73190325
	 0.07246534519,	 17.20735348
	 0.08517642475,	 21.54237738
	 0.1004042993,	 26.95843942
	 0.1187571856,	 33.74407311
	 0.1409656629,	 42.25305262
	 0.1679132165,	 52.91812619
	 0.2007095441,	 66.28200778
	 0.240778836,	 83.03587328
	 0.2545524427,	 88.8801468
END
BEGIN
	 52.878393142672891 ,	 -0.75514992021232885 
	 52.876275929058167 ,	 -0.75113807626568696 
	 52.874167715189316 ,	 -0.74720702799367722 
	 52.87206839704227 ,	 -0.74335408149109661 
	 52.814730377076117 ,	 -0.65643435757302726 
	 52.766268544382704 ,	 -0.59985787143793945 
	 52.724065398283834 ,	 -0.55598685883693899 
	 52.687799195049784 ,	 -0.51952378495035678 
	 52.616645762197685 ,	 -0.44549855943106903 
	 52.57881470762171 ,	 -0.40253192695055817 
	 52.550236749056673 ,	 -0.36767236727432479 
	 52.527989447321993 ,	 -0.33894293474750187 
	 52.500452307493319 ,	 -0.30143114555200495 
	 52.472257617520683 ,	 -0.26085794396550449 
	 52.447425180349043 ,	 -0.22315644713761029 
	 52.426250751961405 ,	 -0.188931964600381 
	 52.408464238263399 ,	 -0.15773954402376422 
	 52.394463096545053 ,	 -0.1305313781471186 
	 52.383817062824583 ,	 -0.1071142077671598 
	 52.375717733870765 ,	 -0.086345734421938686 
	 52.369714094284447 ,	 -0.067487595762096633 
	 52.365654601201989 ,	 -0.050423614561436028 
	 52.363402815190788 ,	 -0.035161344287719901 
	 52.362783162050867 ,	 -0.021563470300818458 
	 52.36365971807674 ,	 -0.0094138024004039329 
	 52.365995628225576 ,	 0.001477846453976496 
	 52.369892302405852 ,	 0.011252250584087692 
	 52.375668380368118 ,	 0.020025675115272732 
	 52.3840129031693 ,	 0.027910335103998117 
	 52.396232651431419 ,	 0.035017693181204151 
	 52.400998224685971 ,	 0.037024809372787029 
END
BEGIN
	 0.005963760117,	 0.3352450878
	 0.005997553868,	 0.338576548
	 0.006031360743,	 0.3419077244
	 0.006065178514,	 0.3452386187
	 0.00704333117,	 0.4418808986
	 0.007949227742,	 0.5342194794
	 0.008806488412,	 0.6264259665
	 0.009610080366,	 0.7185344881
	 0.011472572,	 0.9573866213
	 0.01272603049,	 1.138951344
	 0.0138847715,	 1.320421005
	 0.01497678141,	 1.501817422
	 0.01666808184,	 1.799479265
	 0.0189859184,	 2.235143701
	 0.02180560094,	 2.802935974
	 0.02517322802,	 3.53046759
	 0.02922761238,	 4.470287442
	 0.03391295331,	 5.63193111
	 0.03923265214,	 7.034946464
	 0.04543617277,	 8.76736316
	 0.05286892799,	 10.95865455
	 0.06180210877,	 13.73190325
	 0.07246534519,	 17.20735348
	 0.08517642475,	 21.54237738
	 0.1004042993,	 26.95843942
	 0.1187571856,	 33.74407311
	 0.1409656629,	 42.25305262
	 0.1679132165,	 52.91812619
	 0.2007095441,	 66.28200778
	 0.240778836,	 83.03587328
	 0.2545524427,	 88.8801468
END
BEGIN
	 0.001509074936,	 8.099099491e-010
	 0.001516856885,	 8.098292648e-010
	 0.001524642252,	 8.097489859e-010
	 0.001532430409,	 8.096691077e-010
	 0.001757377423,	 8.075098356e-010
	 0.001964022313,	 8.057107935e-010
	 0.002156976312,	 8.041532853e-010
	 0.002334905333,	 8.028144097e-010
	 0.002734482562,	 8.0015847e-010
	 0.002993079345,	 7.987109475e-010
	 0.003225464297,	 7.975889344e-010
	 0.003439411144,	 7.966918958e-010
	 0.003762640494,	 7.955441806e-010
	 0.004192093689,	 7.943138034e-010
	 0.004696039967,	 7.931684315e-010
	 0.005273681973,	 7.921262802e-010
	 0.00593770925,	 7.911781479e-010
	 0.006667884871,	 7.903545311e-010
	 0.007455461626,	 7.896492516e-010
	 0.00832631731,	 7.890280244e-010
	 0.009312506251,	 7.884698628e-010
	 0.01042846669,	 7.879734206e-010
	 0.01167828806,	 7.875420439e-010
	 0.0130719568,	 7.87176343e-010
	 0.01462934363,	 7.868772521e-010
	 0.01637502642,	 7.866505581e-010
	 0.01833384104,	 7.865093629e-010
	 0.02053151652,	 7.864760388e-010
	 0.02299792922,	 7.865858612e-010
	 0.02576956902,	 7.868931696e-010
	 0.02667167954,	 7.870361801e-010
END
BEGIN
	 0.008377844886,	 4.112193953e-008
	 0.008461630455,	 4.11210259e-008
	 0.008545416034,	 4.112012127e-008
	 0.008629201623,	 4.111922547e-008
	 0.0110630347,	 4.10964147e-008
	 0.01339295558,	 4.107886902e-008
	 0.01572287999,	 4.106414561e-008
	 0.01805280698,	 4.105146151e-008
	 0.02410209825,	 4.102493858e-008
	 0.02870489896,	 4.100890346e-008
	 0.03330770368,	 4.099526203e-008
	 0.0379105124,	 4.098339287e-008
	 0.04546679919,	 4.096673439e-008
	 0.05653255922,	 4.094678527e-008
	 0.07096326739,	 4.092599258e-008
	 0.08946520574,	 4.090484545e-008
	 0.1133800536,	 4.08832894e-008
	 0.1429561459,	 4.086229448e-008
	 0.1786966974,	 4.084221535e-008
	 0.2228512813,	 4.082253314e-008
	 0.2787309762,	 4.080286205e-008
	 0.3494913652,	 4.078337025e-008
	 0.4382249454,	 4.076444578e-008
	 0.5489860034,	 4.074639458e-008
	 0.6874904654,	 4.072947667e-008
	 0.8612115707,	 4.071404892e-008
	 1.0793645131087515 ,	 4.0700631588474803e-008 
	 1.3533080506852806 ,	 4.0689886455458575e-008 
	 1.6974200042694476 ,	 4.068256599001748e-008 
	 2.1302155730722547 ,	 4.0679446065652848e-008 
	 2.2815625405287641 ,	 4.0679429932127125e-008 
END
CITIFILE A.01.01
NAME PortSet10/TwoP0_Dsolver_data/first_odd_mode_is_1/most_even_mode_is_1/PMLG4/LS0

VAR freq MAG 31

DATA GAMMA_9[1] RI
DATA Z0_9[1,1] RI
DATA LAMBADAI_9[1,1] RI
DATA Zcir_9[1,1] RI
DATA Ycir_9[1,1] RI

VAR_LIST_BEGIN
	 9244492.989
	 9336937.919
	 9429382.849
	 9521827.779
	 12207196.38
	 14777907.84
	 17348619.3
	 19919330.76
	 26593772.2
	 31672232.56
	 36750692.92
	 41829153.29
	 50166291.22
	 62375530.76
	 78297348.79
	 98710863.57
	 125096038.4
	 157726174.2
	 197155211.3
	 245862531.1
	 307495769.7
	 385525691.6
	 483344152.2
	 605387032.9
	 757891371
	 948974538.4
	 1188572532
	 1488807578
	 1864826743
	 2335825467
	 2500000000
VAR_LIST_END

BEGIN
	 0.005963760117,	 0.3352450878
	 0.005997553868,	 0.338576548
	 0.006031360743,	 0.3419077244
	 0.006065178514,	 0.3452386187
	 0.00704333117,	 0.4418808986
	 0.007949227742,	 0.5342194794
	 0.008806488412,	 0.6264259665
	 0.009610080366,	 0.7185344881
	 0.011472572,	 0.9573866213
	 0.01272603049,	 1.138951344
	 0.0138847715,	 1.320421005
	 0.01497678141,	 1.501817422
	 0.01666808184,	 1.799479265
	 0.0189859184,	 2.235143701
	 0.02180560094,	 2.802935974
	 0.02517322802,	 3.53046759
	 0.02922761238,	 4.470287442
	 0.03391295331,	 5.63193111
	 0.03923265214,	 7.034946464
	 0.04543617277,	 8.76736316
	 0.05286892799,	 10.95865455
	 0.06180210877,	 13.73190325
	 0.07246534519,	 17.20735348
	 0.08517642475,	 21.54237738
	 0.1004042993,	 26.95843942
	 0.1187571856,	 33.74407311
	 0.1409656629,	 42.25305262
	 0.1679132165,	 52.91812619
	 0.2007095441,	 66.28200778
	 0.240778836,	 83.03587328
	 0.2545524427,	 88.8801468
END
BEGIN
	 52.878393142672891 ,	 -0.75514992021232885 
	 52.876275929058167 ,	 -0.75113807626568696 
	 52.874167715189316 ,	 -0.74720702799367722 
	 52.87206839704227 ,	 -0.74335408149109661 
	 52.814730377076117 ,	 -0.65643435757302726 
	 52.766268544382704 ,	 -0.59985787143793945 
	 52.724065398283834 ,	 -0.55598685883693899 
	 52.687799195049784 ,	 -0.51952378495035678 
	 52.616645762197685 ,	 -0.44549855943106903 
	 52.57881470762171 ,	 -0.40253192695055817 
	 52.550236749056673 ,	 -0.36767236727432479 
	 52.527989447321993 ,	 -0.33894293474750187 
	 52.500452307493319 ,	 -0.30143114555200495 
	 52.472257617520683 ,	 -0.26085794396550449 
	 52.447425180349043 ,	 -0.22315644713761029 
	 52.426250751961405 ,	 -0.188931964600381 
	 52.408464238263399 ,	 -0.15773954402376422 
	 52.394463096545053 ,	 -0.1305313781471186 
	 52.383817062824583 ,	 -0.1071142077671598 
	 52.375717733870765 ,	 -0.086345734421938686 
	 52.369714094284447 ,	 -0.067487595762096633 
	 52.365654601201989 ,	 -0.050423614561436028 
	 52.363402815190788 ,	 -0.035161344287719901 
	 52.362783162050867 ,	 -0.021563470300818458 
	 52.36365971807674 ,	 -0.0094138024004039329 
	 52.365995628225576 ,	 0.001477846453976496 
	 52.369892302405852 ,	 0.011252250584087692 
	 52.375668380368118 ,	 0.020025675115272732 
	 52.3840129031693 ,	 0.027910335103998117 
	 52.396232651431419 ,	 0.035017693181204151 
	 52.400998224685971 ,	 0.037024809372787029 
END
BEGIN
	 0.005963760117,	 0.3352450878
	 0.005997553868,	 0.338576548
	 0.006031360743,	 0.3419077244
	 0.006065178514,	 0.3452386187
	 0.00704333117,	 0.4418808986
	 0.007949227742,	 0.5342194794
	 0.008806488412,	 0.6264259665
	 0.009610080366,	 0.7185344881
	 0.011472572,	 0.9573866213
	 0.01272603049,	 1.138951344
	 0.0138847715,	 1.320421005
	 0.01497678141,	 1.501817422
	 0.01666808184,	 1.799479265
	 0.0189859184,	 2.235143701
	 0.02180560094,	 2.802935974
	 0.02517322802,	 3.53046759
	 0.02922761238,	 4.470287442
	 0.03391295331,	 5.63193111
	 0.03923265214,	 7.034946464
	 0.04543617277,	 8.76736316
	 0.05286892799,	 10.95865455
	 0.06180210877,	 13.73190325
	 0.07246534519,	 17.20735348
	 0.08517642475,	 21.54237738
	 0.1004042993,	 26.95843942
	 0.1187571856,	 33.74407311
	 0.1409656629,	 42.25305262
	 0.1679132165,	 52.91812619
	 0.2007095441,	 66.28200778
	 0.240778836,	 83.03587328
	 0.2545524427,	 88.8801468
END
BEGIN
	 0.001509074936,	 8.099099491e-010
	 0.001516856885,	 8.098292648e-010
	 0.001524642252,	 8.097489859e-010
	 0.001532430409,	 8.096691077e-010
	 0.001757377423,	 8.075098356e-010
	 0.001964022313,	 8.057107935e-010
	 0.002156976312,	 8.041532853e-010
	 0.002334905333,	 8.028144097e-010
	 0.002734482562,	 8.0015847e-010
	 0.002993079345,	 7.987109475e-010
	 0.003225464297,	 7.975889344e-010
	 0.003439411144,	 7.966918958e-010
	 0.003762640494,	 7.955441806e-010
	 0.004192093689,	 7.943138034e-010
	 0.004696039967,	 7.931684315e-010
	 0.005273681973,	 7.921262802e-010
	 0.00593770925,	 7.911781479e-010
	 0.006667884871,	 7.903545311e-010
	 0.007455461626,	 7.896492516e-010
	 0.00832631731,	 7.890280244e-010
	 0.009312506251,	 7.884698628e-010
	 0.01042846669,	 7.879734206e-010
	 0.01167828806,	 7.875420439e-010
	 0.0130719568,	 7.87176343e-010
	 0.01462934363,	 7.868772521e-010
	 0.01637502642,	 7.866505581e-010
	 0.01833384104,	 7.865093629e-010
	 0.02053151652,	 7.864760388e-010
	 0.02299792922,	 7.865858612e-010
	 0.02576956902,	 7.868931696e-010
	 0.02667167954,	 7.870361801e-010
END
BEGIN
	 0.008377844886,	 4.112193953e-008
	 0.008461630455,	 4.11210259e-008
	 0.008545416034,	 4.112012127e-008
	 0.008629201623,	 4.111922547e-008
	 0.0110630347,	 4.10964147e-008
	 0.01339295558,	 4.107886902e-008
	 0.01572287999,	 4.106414561e-008
	 0.01805280698,	 4.105146151e-008
	 0.02410209825,	 4.102493858e-008
	 0.02870489896,	 4.100890346e-008
	 0.03330770368,	 4.099526203e-008
	 0.0379105124,	 4.098339287e-008
	 0.04546679919,	 4.096673439e-008
	 0.05653255922,	 4.094678527e-008
	 0.07096326739,	 4.092599258e-008
	 0.08946520574,	 4.090484545e-008
	 0.1133800536,	 4.08832894e-008
	 0.1429561459,	 4.086229448e-008
	 0.1786966974,	 4.084221535e-008
	 0.2228512813,	 4.082253314e-008
	 0.2787309762,	 4.080286205e-008
	 0.3494913652,	 4.078337025e-008
	 0.4382249454,	 4.076444578e-008
	 0.5489860034,	 4.074639458e-008
	 0.6874904654,	 4.072947667e-008
	 0.8612115707,	 4.071404892e-008
	 1.0793645131087515 ,	 4.0700631588474803e-008 
	 1.3533080506852806 ,	 4.0689886455458575e-008 
	 1.6974200042694476 ,	 4.068256599001748e-008 
	 2.1302155730722547 ,	 4.0679446065652848e-008 
	 2.2815625405287641 ,	 4.0679429932127125e-008 
END
CITIFILE A.01.01
NAME PortSet11/TwoP0_Dsolver_data/first_odd_mode_is_1/most_even_mode_is_1/PMLG4/LS0

VAR freq MAG 31

DATA GAMMA_11[1] RI
DATA Z0_11[1,1] RI
DATA LAMBADAI_11[1,1] RI
DATA Zcir_11[1,1] RI
DATA Ycir_11[1,1] RI

VAR_LIST_BEGIN
	 9244492.989
	 9336937.919
	 9429382.849
	 9521827.779
	 12260563.78
	 14886545.52
	 17512527.27
	 20138509.01
	 27348645.64
	 32344212.22
	 37339778.8
	 42335345.38
	 50889522.21
	 63583130.79
	 80048195.55
	 100957520.5
	 127753271.5
	 160825071.5
	 200968751.8
	 250755487.2
	 313748036.2
	 393355098
	 493070710.7
	 617521452.1
	 773110558.2
	 968081831.8
	 1212528683
	 1518817630
	 1902443934
	 2383043986
	 2500000000
VAR_LIST_END

BEGIN
	 0.005831814933,	 0.3375754423
	 0.005864938544,	 0.3409303098
	 0.005898070486,	 0.3442849026
	 0.005931208715,	 0.3476392227
	 0.006907111006,	 0.4468980609
	 0.007810051717,	 0.5418928258
	 0.008663060303,	 0.6367560977
	 0.009461946059,	 0.7315223399
	 0.01141226775,	 0.9914063591
	 0.01260838964,	 1.171302135
	 0.01372030456,	 1.351110663
	 0.01477212767,	 1.530850516
	 0.01647438449,	 1.838496511
	 0.01883864881,	 2.294759362
	 0.0216992233,	 2.886222584
	 0.02508563997,	 3.636887623
	 0.02913476623,	 4.59834384
	 0.03381437046,	 5.784379656
	 0.03916132416,	 7.223360971
	 0.04543074821,	 9.007251859
	 0.05295250053,	 11.26344239
	 0.06199023868,	 14.11371697
	 0.07278699501,	 17.68289668
	 0.08568208742,	 22.13639307
	 0.1011622062,	 27.70334805
	 0.1198503605,	 34.67912516
	 0.1424975834,	 43.42605915
	 0.1700193694,	 54.38939035
	 0.2035714837,	 68.12926638
	 0.2446395685,	 85.3594101
	 0.2545145524,	 89.55575608
END
BEGIN
	 47.610825935016706 ,	 -0.65406379561507921 
	 47.608963690621906 ,	 -0.65056679459870304 
	 47.607110317813799 ,	 -0.64713960102122248 
	 47.60526569635941 ,	 -0.64377990222207426 
	 47.554257101998061 ,	 -0.56664033719536677 
	 47.511545987400801 ,	 -0.51649952886891271 
	 47.474650127470674 ,	 -0.47770063737777124 
	 47.443152545814684 ,	 -0.44552668052962291 
	 47.379086888244032 ,	 -0.37737255202478165 
	 47.348515646274045 ,	 -0.34170855366350078 
	 47.325254360880116 ,	 -0.31263852610560566 
	 47.307029537574692 ,	 -0.28857131309313394 
	 47.283501133300845 ,	 -0.25578887706030851 
	 47.259298970516653 ,	 -0.22006537805648416 
	 47.238319376499852 ,	 -0.18722932306406112 
	 47.220756805544447 ,	 -0.1577644020707214 
	 47.20623537553525 ,	 -0.13111388129753768 
	 47.194915400595953 ,	 -0.10786296856583631 
	 47.186373919528982 ,	 -0.087734335898622909 
	 47.179980642206132 ,	 -0.069815287911133977 
	 47.175395338514654 ,	 -0.053557851302809295 
	 47.17248062214793 ,	 -0.038877687864903976 
	 47.171097406146764 ,	 -0.025755505237414975 
	 47.171086209066871 ,	 -0.014057419717023869 
	 47.172332955306949 ,	 -0.0035985536845246596 
	 47.174812483269385 ,	 0.00577968410656417 
	 47.178630932628664 ,	 0.014197211724610959 
	 47.18410820010007 ,	 0.021755831340164653 
	 47.191932710194976 ,	 0.028554425712213668 
	 47.203407523056939 ,	 0.034690810836287875 
	 47.206517385007878 ,	 0.035919476741332744 
END
BEGIN
	 0.005831814933,	 0.3375754423
	 0.005864938544,	 0.3409303098
	 0.005898070486,	 0.3442849026
	 0.005931208715,	 0.3476392227
	 0.006907111006,	 0.4468980609
	 0.007810051717,	 0.5418928258
	 0.008663060303,	 0.6367560977
	 0.009461946059,	 0.7315223399
	 0.01141226775,	 0.9914063591
	 0.01260838964,	 1.171302135
	 0.01372030456,	 1.351110663
	 0.01477212767,	 1.530850516
	 0.01647438449,	 1.838496511
	 0.01883864881,	 2.294759362
	 0.0216992233,	 2.886222584
	 0.02508563997,	 3.636887623
	 0.02913476623,	 4.59834384
	 0.03381437046,	 5.784379656
	 0.03916132416,	 7.223360971
	 0.04543074821,	 9.007251859
	 0.05295250053,	 11.26344239
	 0.06199023868,	 14.11371697
	 0.07278699501,	 17.68289668
	 0.08568208742,	 22.13639307
	 0.1011622062,	 27.70334805
	 0.1198503605,	 34.67912516
	 0.1424975834,	 43.42605915
	 0.1700193694,	 54.38939035
	 0.2035714837,	 68.12926638
	 0.2446395685,	 85.3594101
	 0.2545145524,	 89.55575608
END
BEGIN
	 0.001323103857,	 7.343107482e-010
	 0.001329920892,	 7.342386998e-010
	 0.001336739832,	 7.341670472e-010
	 0.001343560161,	 7.34095785e-010
	 0.001544056579,	 7.321447385e-010
	 0.001727906956,	 7.305334178e-010
	 0.001899115693,	 7.291487021e-010
	 0.002056689185,	 7.279651156e-010
	 0.002428347845,	 7.255247726e-010
	 0.002647072235,	 7.243266921e-010
	 0.002844809564,	 7.233900083e-010
	 0.003027589823,	 7.226355055e-010
	 0.003315988429,	 7.216265678e-010
	 0.003703705746,	 7.20535559e-010
	 0.00415528049,	 7.195306103e-010
	 0.004667354858,	 7.18627189e-010
	 0.005251101363,	 7.178118778e-010
	 0.005892242602,	 7.17103678e-010
	 0.006587251479,	 7.164939273e-010
	 0.007358752972,	 7.159552563e-010
	 0.008232150091,	 7.154723586e-010
	 0.009218641039,	 7.150448241e-010
	 0.01032269951,	 7.146751996e-010
	 0.01155441156,	 7.143642103e-010
	 0.01293166066,	 7.141137442e-010
	 0.01447582775,	 7.139304962e-010
	 0.0162087065,	 7.138281416e-010
	 0.0181533705,	 7.138294181e-010
	 0.02033693158,	 7.139698928e-010
	 0.02279251918,	 7.143040551e-010
	 0.0233534393,	 7.144073285e-010
END
BEGIN
	 0.009448365926,	 4.598899248e-008
	 0.009542857494,	 4.598796212e-008
	 0.009637349072,	 4.598694191e-008
	 0.00973184066,	 4.598593165e-008
	 0.01253121403,	 4.595975489e-008
	 0.01521534215,	 4.593966108e-008
	 0.01789947402,	 4.592284174e-008
