CITIFILE A.01.01
#Momentum: B.12.00.024 (*) built: Jan 14 2016 
#Momentum Date and Time: Wed Apr 18 19:19:08 2018

NAME Momentum.SP

# project: proj  [ S_smoothed = S_calculated * smoothing_factor ]

CONSTANT NORMALIZATION 1.002778048

VAR freq MAG 51

DATA smoothing_factor RI

VAR_LIST_BEGIN
	 0
	 400000000
	 457142900
	 514285800
	 571428700
	 628571600
	 685714500
	 742857400
	 800000300
	 857143200
	 914286100
	 971429000
	 1028571900
	 1085714800
	 1142857700
	 1200000600
	 1257143500
	 1314286400
	 1371429300
	 1428572200
	 1485715100
	 1542858000
	 1600000900
	 1657143800
	 1714286700
	 1771429600
	 1828572500
	 1885715400
	 1942858300
	 2000001200
	 2057144100
	 2114287000
	 2171429900
	 2228572800
	 2285715700
	 2342858600
	 2400001500
	 2457144400
	 2514287300
	 2571430200
	 2628573100
	 2685716000
	 2742858900
	 2800001800
	 2857144700
	 2914287600
	 2971430500
	 3028573400
	 3085716300
	 3142859200
	 3200000000
VAR_LIST_END

BEGIN
	 0.99999389900000002 ,	 0 
	 1 ,	 0 
	 1 ,	 0 
	 1 ,	 0 
	 1 ,	 0 
	 1 ,	 0 
	 1 ,	 0 
	 0.99999822000000005 ,	 0 
	 0.99997832100000006 ,	 0 
	 0.99995623800000011 ,	 0 
	 0.99993199300000002 ,	 0 
	 0.99990559900000009 ,	 0 
	 0.99987706700000001 ,	 0 
	 0.99984640600000008 ,	 0 
	 0.9998136230000001 ,	 0 
	 0.99977873500000003 ,	 0 
	 0.99974173700000002 ,	 0 
	 0.99970262800000009 ,	 0 
	 0.99966141500000005 ,	 0 
	 0.99961810100000004 ,	 0 
	 0.99957275600000006 ,	 0 
	 0.99952533100000007 ,	 0 
	 0.9994758210000001 ,	 0 
	 0.99942422000000009 ,	 0 
	 0.99937052300000007 ,	 0 
	 0.9993147240000001 ,	 0 
	 0.99925681100000008 ,	 0 
	 0.99919677200000001 ,	 0 
	 0.99913460400000009 ,	 0 
	 0.99907030100000005 ,	 0 
	 0.99900385000000003 ,	 0 
	 0.99893524300000003 ,	 0 
	 0.99886447000000012 ,	 0 
	 0.99879172100000002 ,	 0 
	 0.99871695800000004 ,	 0 
	 0.99864006100000002 ,	 0 
	 0.99856102600000007 ,	 0 
	 0.99847985100000003 ,	 0 
	 0.99839651400000007 ,	 0 
	 0.99831101800000011 ,	 0 
	 0.99822336100000009 ,	 0 
	 0.9981335360000001 ,	 0 
	 0.99804155900000002 ,	 0 
	 0.99794742900000011 ,	 0 
	 0.99785116200000001 ,	 0 
	 0.9977527610000001 ,	 0 
	 0.9976522510000001 ,	 0 
	 0.99754965400000006 ,	 0 
	 0.99744499900000005 ,	 0 
	 0.99733832100000008 ,	 0 
	 0.99722964900000011 ,	 0 
END
