CITIFILE A.01.01
#Momentum: B.12.00.024 (*) built: Jan 14 2016 
#Momentum Date and Time: Wed Apr 18 19:17:25 2018

NAME PortSet1


CONSTANT NBR_OF_PORTS 22

VAR freq MAG 2

DATA GAMMA_1[1] RI
DATA Z0_1[1,1] RI
DATA LAMBADAI_1[1,1] RI

VAR_LIST_BEGIN
	 9244492.989
	 3200000000
VAR_LIST_END

BEGIN
	 0 ,	 0 
	 0 ,	 0 
END
BEGIN
	 50 ,	 0 
	 50 ,	 0 
END
BEGIN
	 0 ,	 0 
	 0 ,	 0 
END
CITIFILE A.01.01
NAME PortSet2

VAR freq MAG 2

DATA GAMMA_2[1] RI
DATA Z0_2[1,1] RI
DATA LAMBADAI_2[1,1] RI

VAR_LIST_BEGIN
	 9244492.989
	 3200000000
VAR_LIST_END

BEGIN
	 0 ,	 0 
	 0 ,	 0 
END
BEGIN
	 50 ,	 0 
	 50 ,	 0 
END
BEGIN
	 0 ,	 0 
	 0 ,	 0 
END
CITIFILE A.01.01
NAME PortSet3

VAR freq MAG 2

DATA GAMMA_3[1] RI
DATA Z0_3[1,1] RI
DATA LAMBADAI_3[1,1] RI

VAR_LIST_BEGIN
	 9244492.989
	 3200000000
VAR_LIST_END

BEGIN
	 0 ,	 0 
	 0 ,	 0 
END
BEGIN
	 50 ,	 0 
	 50 ,	 0 
END
BEGIN
	 0 ,	 0 
	 0 ,	 0 
END
CITIFILE A.01.01
NAME PortSet4

VAR freq MAG 2

DATA GAMMA_4[1] RI
DATA Z0_4[1,1] RI
DATA LAMBADAI_4[1,1] RI

VAR_LIST_BEGIN
	 9244492.989
	 3200000000
VAR_LIST_END

BEGIN
	 0 ,	 0 
	 0 ,	 0 
END
BEGIN
	 50 ,	 0 
	 50 ,	 0 
END
BEGIN
	 0 ,	 0 
	 0 ,	 0 
END
CITIFILE A.01.01
NAME PortSet5

VAR freq MAG 2

DATA GAMMA_5[1] RI
DATA Z0_5[1,1] RI
DATA LAMBADAI_5[1,1] RI

VAR_LIST_BEGIN
	 9244492.989
	 3200000000
VAR_LIST_END

BEGIN
	 0 ,	 0 
	 0 ,	 0 
END
BEGIN
	 50 ,	 0 
	 50 ,	 0 
END
BEGIN
	 0 ,	 0 
	 0 ,	 0 
END
CITIFILE A.01.01
NAME PortSet6

VAR freq MAG 2

DATA GAMMA_6[1] RI
DATA Z0_6[1,1] RI
DATA LAMBADAI_6[1,1] RI

VAR_LIST_BEGIN
	 9244492.989
	 3200000000
VAR_LIST_END

BEGIN
	 0 ,	 0 
	 0 ,	 0 
END
BEGIN
	 50 ,	 0 
	 50 ,	 0 
END
BEGIN
	 0 ,	 0 
	 0 ,	 0 
END
CITIFILE A.01.01
NAME PortSet7

VAR freq MAG 2

DATA GAMMA_7[1] RI
DATA Z0_7[1,1] RI
DATA LAMBADAI_7[1,1] RI

VAR_LIST_BEGIN
	 9244492.989
	 3200000000
VAR_LIST_END

BEGIN
	 0 ,	 0 
	 0 ,	 0 
END
BEGIN
	 50 ,	 0 
	 50 ,	 0 
END
BEGIN
	 0 ,	 0 
	 0 ,	 0 
END
CITIFILE A.01.01
NAME PortSet8

VAR freq MAG 2

DATA GAMMA_8[1] RI
DATA Z0_8[1,1] RI
DATA LAMBADAI_8[1,1] RI

VAR_LIST_BEGIN
	 9244492.989
	 3200000000
VAR_LIST_END

BEGIN
	 0 ,	 0 
	 0 ,	 0 
END
BEGIN
	 50 ,	 0 
	 50 ,	 0 
END
BEGIN
	 0 ,	 0 
	 0 ,	 0 
END
CITIFILE A.01.01
NAME PortSet9/TwoP0_Dsolver_data/first_odd_mode_is_1/most_even_mode_is_1/PMLG4/LS0

VAR freq MAG 31

DATA GAMMA_9[1] RI
DATA Z0_9[1,1] RI
DATA LAMBADAI_9[1,1] RI
DATA Zcir_9[1,1] RI
DATA Ycir_9[1,1] RI

VAR_LIST_BEGIN
	 9244492.989
	 9336937.919
	 9429382.849
	 9521827.779
	 12406361.12
	 15184089.14
	 17961817.16
	 20739545.18
	 30410897.64
	 35444383.83
	 40477870.02
	 45511356.21
	 55136172.99
	 70021035.22
	 89172572.32
	 112736420.4
	 141812917.2
	 177424207.5
	 221520424.5
	 277058363.9
	 347209345.2
	 435213031.8
	 545141180.2
	 682553685.7
	 854677714.4
	 1070451857
	 1340851078
	 1679584075
	 2103997823
	 2636061334
	 3200000000
VAR_LIST_END

BEGIN
	 0.005637366668,	 0.3439571738
	 0.005669533305,	 0.3473757509
	 0.005701697842,	 0.3507940695
	 0.005733858604,	 0.3542121312
	 0.006727208355,	 0.4607460123
	 0.00764423863,	 0.5631522573
	 0.008506699591,	 0.6654250224
	 0.009312497697,	 0.7676006032
	 0.01176073186,	 1.122901018
	 0.01288379181,	 1.307652539
	 0.0139419153,	 1.492328985
	 0.01495223917,	 1.676942965
	 0.01678675604,	 2.029806485
	 0.01944200709,	 2.575199092
	 0.02262380383,	 3.276492162
	 0.02627702868,	 4.138860921
	 0.03050230028,	 5.202425926
	 0.03537651603,	 6.504410551
	 0.04108572542,	 8.115924322
	 0.04790928651,	 10.14478902
	 0.05611116856,	 12.70658654
	 0.06593228435,	 15.9193696
	 0.07768114624,	 19.93161424
	 0.09179365641,	 24.94625476
	 0.1088366653,	 31.22740746
	 0.12950306,	 39.10236592
	 0.1546395403,	 48.97416569
	 0.1853106661,	 61.34827963
	 0.2228822407,	 76.86780402
	 0.2691161831,	 96.35308424
	 0.3174652776,	 117.0465143
END
BEGIN
	 35.810802805510214 ,	 -0.45749830683136583 
	 35.809449367966351 ,	 -0.45501828430781555 
	 35.808104004675222 ,	 -0.45258673265202642 
	 35.806766578887853 ,	 -0.45020207118236388 
	 35.768532143984544 ,	 -0.39288281719877532 
	 35.737273215984736 ,	 -0.35579076579219887 
	 35.710830552990622 ,	 -0.32726158073806083 
	 35.688638470028124 ,	 -0.30375095823879039 
	 35.635796333159199 ,	 -0.24409024105093899 
	 35.618155498640064 ,	 -0.22180883725937373 
	 35.604546135850015 ,	 -0.2035188982552783 
	 35.59373789669408 ,	 -0.18825905288119416 
	 35.578191240005076 ,	 -0.16512825106245904 
	 35.561956782013205 ,	 -0.13936281922426569 
	 35.548487762371863 ,	 -0.1163155916660691 
	 35.53791077306068 ,	 -0.096450573475357265 
	 35.529686422661477 ,	 -0.079099767569349833 
	 35.523466166360436 ,	 -0.063946546609958604 
	 35.518865288375558 ,	 -0.050495983871067775 
	 35.515618202584506 ,	 -0.038350252212653188 
	 35.513586672863113 ,	 -0.027381361223668004 
	 35.512650098377215 ,	 -0.01755819638009469 
	 35.51267400483011 ,	 -0.0087940684960512074 
	 35.513545275487971 ,	 -0.00096063584699638269 
	 35.515204960446944 ,	 0.0060604032108226794 
	 35.517677205294945 ,	 0.012361755462869191 
	 35.521126597542107 ,	 0.018021065318866804 
	 35.525963809898073 ,	 0.023111866949771111 
	 35.533026573664678 ,	 0.027706466544142747 
	 35.543869685725177 ,	 0.031874969764553736 
	 35.558217474599644 ,	 0.035167267061060943 
END
BEGIN
	 0.005637366668,	 0.3439571738
	 0.005669533305,	 0.3473757509
	 0.005701697842,	 0.3507940695
	 0.005733858604,	 0.3542121312
	 0.006727208355,	 0.4607460123
	 0.00764423863,	 0.5631522573
	 0.008506699591,	 0.6654250224
	 0.009312497697,	 0.7676006032
	 0.01176073186,	 1.122901018
	 0.01288379181,	 1.307652539
	 0.0139419153,	 1.492328985
	 0.01495223917,	 1.676942965
	 0.01678675604,	 2.029806485
	 0.01944200709,	 2.575199092
	 0.02262380383,	 3.276492162
	 0.02627702868,	 4.138860921
	 0.03050230028,	 5.202425926
	 0.03537651603,	 6.504410551
	 0.04108572542,	 8.115924322
	 0.04790928651,	 10.14478902
	 0.05611116856,	 12.70658654
	 0.06593228435,	 15.9193696
	 0.07768114624,	 19.93161424
	 0.09179365641,	 24.94625476
	 0.1088366653,	 31.22740746
	 0.12950306,	 39.10236592
	 0.1546395403,	 48.97416569
	 0.1853106661,	 61.34827963
	 0.2228822407,	 76.86780402
	 0.2691161831,	 96.35308424
	 0.3174652776,	 117.0465143
END
BEGIN
	 0.000953569138004185 ,	 5.62773825877333e-010 
	 0.000958471140863791 ,	 5.62719672628736e-010 
	 0.000963372649188952 ,	 5.62665873444127e-010 
	 0.000968273344251403 ,	 5.62612422592066e-010 
	 0.00111921309581469 ,	 5.6109724123375e-010 
	 0.00125699614263811 ,	 5.59872719504963e-010 
	 0.00138441017482678 ,	 5.58839929329714e-010 
	 0.00150109954712443 ,	 5.57969829836933e-010 
	 0.00184002216822156 ,	 5.5584928436136e-010 
	 0.00198801545090666 ,	 5.55110206098653e-010 
	 0.00212383388481246 ,	 5.54521881074005e-010 
	 0.00225069665687577 ,	 5.54040017873408e-010 
	 0.0024750349186316 ,	 5.53317894989468e-010 
	 0.0027878900013946 ,	 5.52515654511565e-010 
	 0.00314641251128834 ,	 5.51796143409016e-010 
	 0.00353840924140553 ,	 5.51176261516114e-010 
	 0.00396901332930287 ,	 5.50636915297425e-010 
	 0.00443986259690783 ,	 5.50168420426315e-010 
	 0.0049614793418498 ,	 5.49755616490222e-010 
	 0.0055492822781056 ,	 5.49387054767356e-010 
	 0.00621301783207713 ,	 5.49060313664652e-010 
	 0.00695708601216403 ,	 5.48776709778567e-010 
	 0.00778791800616412 ,	 5.48537019413138e-010 
	 0.00871679782840087 ,	 5.48342650729284e-010 
	 0.00975792270097094 ,	 5.48198240698921e-010 
	 0.01092631326,	 5.481134459e-010
	 0.01223794114,	 5.481045809e-010
	 0.01371130974,	 5.481972676e-010
	 0.0153689372,	 5.484308474e-010
	 0.01723826768,	 5.48864838e-010
	 0.01903826715,	 5.494638904e-010
END
BEGIN
	 0.0130760057,	 6.229856259e-008
	 0.01320677623,	 6.229713669e-008
	 0.01333754676,	 6.229572484e-008
	 0.01346831731,	 6.229432677e-008
	 0.01754871847,	 6.225640784e-008
	 0.02147804106,	 6.222746001e-008
	 0.02540736798,	 6.22033923e-008
	 0.02933669841,	 6.21827954e-008
	 0.04301766617,	 6.212799054e-008
	 0.05013798584,	 6.210607285e-008
	 0.05725831937,	 6.208707929e-008
	 0.06437866944,	 6.207032332e-008
	 0.07799395507,	 6.204291954e-008
	 0.09905030471,	 6.200883505e-008
	 0.1261428252,	 6.197444269e-008
	 0.1594781487,	 6.194121829e-008
	 0.2006140493,	 6.190888975e-008
	 0.250998752,	 6.187758293e-008
	 0.3133954504,	 6.184692879e-008
	 0.3919960099,	 6.181656141e-008
	 0.4913042158,	 6.178669101e-008
	 0.6159352473,	 6.175788795e-008
	 0.7717080422,	 6.173070836e-008
	 0.9665957811,	 6.170570378e-008
	 1.2110184145151301 ,	 6.16836001625859e-008 
	 1.5179708541006336 ,	 6.1665399034086877e-008 
	 1.903591889440851 ,	 6.1652362237957129e-008 
	 2.3883312098866933 ,	 6.164594204111933e-008 
	 2.998518821598434 ,	 6.1647646467604707e-008 
	 3.7681998325002031 ,	 6.1658751185747026e-008 
	 4.5899043697087185 ,	 6.1676212250202869e-008 
END
CITIFILE A.01.01
NAME PortSet10/TwoP0_Dsolver_data/first_odd_mode_is_1/most_even_mode_is_1/PMLG4/LS0

VAR freq MAG 32

DATA GAMMA_10[1] RI
DATA Z0_10[1,1] RI
DATA LAMBADAI_10[1,1] RI
DATA Zcir_10[1,1] RI
DATA Ycir_10[1,1] RI

VAR_LIST_BEGIN
	 9244492.989
	 9336937.919
	 9429382.849
	 9521827.779
	 12324321.09
	 15016491.96
	 17708662.84
	 20400833.72
	 28433800.04
	 33397835.38
	 38361870.72
	 43325906.06
	 52234981.58
	 65672134.73
	 83029274.63
	 104817437.2
	 132366785.4
	 166245242.3
	 207646280.9
	 259300245.6
	 324643339.7
	 406999638.9
	 510037556.9
	 638698087.4
	 799666654.8
	 1001416366
	 1254318699
	 1571171270
	 1968071556
	 2465419051
	 3089023499
	 3200000000
VAR_LIST_END

BEGIN
	 0.005723747888,	 0.3403710446
	 0.005756331971,	 0.3437538738
	 0.005788919435,	 0.3471364366
	 0.005821508417,	 0.3505187348
	 0.006801711593,	 0.4529378288
	 0.007707674781,	 0.5511458711
	 0.008561841519,	 0.6492220718
	 0.009360960866,	 0.7472015605
	 0.01146788328,	 1.039200261
	 0.0126196811,	 1.219481258
	 0.01369679039,	 1.399681578
	 0.0147198789,	 1.57981685
	 0.01645886671,	 1.902973455
	 0.01891410725,	 2.390101069
	 0.02187127721,	 3.018951799
	 0.02533362844,	 3.807877416
	 0.02942603403,	 4.804869235
	 0.03415000957,	 6.030298932
	 0.03959563629,	 7.527157754
	 0.04602970868,	 9.393948319
	 0.0537596905,	 11.75458787
	 0.06303850707,	 14.72887694
	 0.0741301396,	 18.4490559
	 0.08740769358,	 23.09339409
	 0.1033864703,	 28.90334344
	 0.1227139205,	 36.18536572
	 0.1461734615,	 45.31545027
	 0.1747315649,	 56.75910431
	 0.209616432,	 71.10454795
	 0.2524097641,	 89.1017807
	 0.3051554377,	 111.7075175
	 0.3144685271,	 115.7355235
END
BEGIN
	 42.05352173942255 ,	 -0.55696181269772294 
	 42.051908033283404 ,	 -0.55396430945431041 
	 42.05030291784599 ,	 -0.55102606245758812 
	 42.048706261608906 ,	 -0.54814512267321913 
	 42.003903519617261 ,	 -0.48063239143468861 
	 41.966790042051066 ,	 -0.43683029174488802 
	 41.935028415099268 ,	 -0.4030239902044036 
	 41.908119580339537 ,	 -0.3750664883753399 
	 41.85030725780819 ,	 -0.31196733127225446 
	 41.826275604681101 ,	 -0.28300413043955053 
	 41.807868309670297 ,	 -0.25930563209761343 
	 41.793356038226307 ,	 -0.23960760044483412 
	 41.773731502334002 ,	 -0.21150916985924773 
	 41.75342681292436 ,	 -0.18061899152044472 
	 41.736136575208818 ,	 -0.1525489854051294 
	 41.722003584598625 ,	 -0.12773056051008749 
	 41.710583554260658 ,	 -0.10556115937931072 
	 41.70179626613519 ,	 -0.086229190749779486 
	 41.695222981376283 ,	 -0.069346163614571577 
	 41.690406969782856 ,	 -0.054230681964354203 
	 41.687112595268779 ,	 -0.040533993087781467 
	 41.685214137198663 ,	 -0.02820423444972002 
	 41.6845722014505 ,	 -0.017192771756817948 
	 41.685046272496365 ,	 -0.0073676843540152418 
	 41.686544702608671 ,	 0.0014248805833208887 
	 41.689059460523552 ,	 0.009311923095347301 
	 41.692710943041732 ,	 0.016392511344043351 
	 41.697838896379167 ,	 0.022754476776180272 
	 41.705163034185112 ,	 0.028483714467261684 
	 41.716038500898435 ,	 0.033664633671242047 
	 41.732891610266805 ,	 0.038379108785578667 
	 41.736305277625227 ,	 0.039079635582841735 
END
BEGIN
	 0.005723747888,	 0.3403710446
	 0.005756331971,	 0.3437538738
	 0.005788919435,	 0.3471364366
	 0.005821508417,	 0.3505187348
	 0.006801711593,	 0.4529378288
	 0.007707674781,	 0.5511458711
	 0.008561841519,	 0.6492220718
	 0.009360960866,	 0.7472015605
	 0.01146788328,	 1.039200261
	 0.0126196811,	 1.219481258
	 0.01369679039,	 1.399681578
	 0.0147198789,	 1.57981685
	 0.01645886671,	 1.902973455
	 0.01891410725,	 2.390101069
	 0.02187127721,	 3.018951799
	 0.02533362844,	 3.807877416
	 0.02942603403,	 4.804869235
	 0.03415000957,	 6.030298932
	 0.03959563629,	 7.527157754
	 0.04602970868,	 9.393948319
	 0.0537596905,	 11.75458787
	 0.06303850707,	 14.72887694
	 0.0741301396,	 18.4490559
	 0.08740769358,	 23.09339409
	 0.1033864703,	 28.90334344
	 0.1227139205,	 36.18536572
	 0.1461734615,	 45.31545027
	 0.1747315649,	 56.75910431
	 0.209616432,	 71.10454795
	 0.2524097641,	 89.1017807
	 0.3051554377,	 111.7075175
	 0.3144685271,	 115.7355235
END
BEGIN
	 0.0011421363093573 ,	 6.53980275911229e-010 
	 0.00114801502233962 ,	 6.53916846418839e-010 
	 0.00115389434566223 ,	 6.53853796659123e-010 
	 0.00115977386304196 ,	 6.53791121012779e-010 
	 0.00133622100656518 ,	 6.52048820277111e-010 
	 0.00149768543043714 ,	 6.506240345643e-010 
	 0.00164757925749833 ,	 6.4940989918542e-010 
	 0.00178523047993911 ,	 6.48378843472582e-010 
	 0.00213450001028158 ,	 6.46125334269665e-010 
	 0.00231718112153101 ,	 6.4515653238068e-010 
	 0.00248341787379843 ,	 6.44392738314205e-010 
	 0.00263777320042986 ,	 6.43772822162115e-010 
	 0.00289343443444099 ,	 6.42902389940786e-010 
	 0.00324217675727989 ,	 6.41951020865594e-010 
	 0.00364547371119555 ,	 6.41084362550866e-010 
	 0.00409670202130086 ,	 6.40317300595838e-010 
	 0.00460431325215873 ,	 6.39634071416808e-010 
	 0.00516046677450916 ,	 6.39041108423582e-010 
	 0.00576786102633302 ,	 6.38526411609102e-010 
	 0.00644608910823959 ,	 6.38069680757396e-010 
	 0.00721350572520337 ,	 6.37661647977186e-010 
	 0.00807790036636937 ,	 6.3730289693794e-010 
	 0.00904432949409237 ,	 6.36995145724632e-010 
	 0.01012325772,	 6.36739295e-010
	 0.01133075877,	 6.365383183e-010
	 0.01268512711,	 6.36400059e-010
	 0.01420520967,	 6.363390752e-010
	 0.01591165846,	 6.363789191e-010
	 0.01782910652,	 6.365561178e-010
	 0.01998765511,	 6.369263146e-010
	 0.0224239525,	 6.375735039e-010
	 0.02283291483,	 6.377071861e-010
END
BEGIN
	 0.01088995801,	 5.249747802e-008
	 0.01099886653,	 5.249629047e-008
	 0.01110777506,	 5.249511462e-008
	 0.0112166836,	 5.249395025e-008
	 0.01451827988,	 5.246316128e-008
	 0.01768991188,	 5.243958433e-008
	 0.02086154784,	 5.241990793e-008
	 0.02403318685,	 5.240302361e-008
	 0.03349681594,	 5.236342474e-008
	 0.03934495011,	 5.23442403e-008
	 0.04519309206,	 5.232772529e-008
	 0.05104124304,	 5.231322869e-008
	 0.06153709039,	 5.229096514e-008
	 0.07736758886,	 5.226374269e-008
	 0.09781649943,	 5.223590794e-008
	 0.1234862032,	 5.220832989e-008
	 0.1559444882,	 5.218083136e-008
	 0.1958617451,	 5.215414644e-008
	 0.2446464876,	 5.212834274e-008
	 0.3055204509,	 5.210290004e-008
	 0.3825420958,	 5.207764952e-008
	 0.4796468073,	 5.205295527e-008
	 0.6011916342,	 5.202930763e-008
	 0.753062383,	 5.200713141e-008
	 0.9432542358,	 5.198689791e-008
	 1.1819650860195763 ,	 5.1969267203586509e-008 
	 1.481796950182986 ,	 5.1955126920660881e-008 
	 1.8584963787321747 ,	 5.1945551066903294e-008 
	 2.3321796061831956 ,	 5.1941723293253795e-008 
	 2.9288261265782225 ,	 5.1944797825806193e-008 
	 3.6820558079130663 ,	 5.1955557852428487e-008 
	 3.8167111103464819 ,	 5.1957946149448591e-008 
END
CITIFILE A.01.01
NAME PortSet11/TwoP0_Dsolver_data/first_odd_mode_is_1/most_even_mode_is_1/PMLG4/LS0

VAR freq MAG 32

DATA GAMMA_11[1] RI
DATA Z0_11[1,1] RI
DATA LAMBADAI_11[1,1] RI
DATA Zcir_11[1,1] RI
DATA Ycir_11[1,1] RI

VAR_LIST_BEGIN
	 9244492.989
	 9336937.919
	 9429382.849
	 9521827.779
	 12260563.79
	 14886545.54
	 17512527.28
	 20138509.03
	 27348645.7
	 32344212.28
	 37339778.85
	 42335345.43
	 50889522.28
	 63583130.88
	 80048195.69
	 100957520.7
	 127753271.8
	 160825071.8
	 200968752.1
	 250755487.6
	 313748036.7
	 393355098.6
	 493070711.5
	 617521453.1
	 773110559.5
	 968081833.3
	 1212528685
	 1518817632
	 1902443937
	 2383043990
	 2985471411
	 3200000000
VAR_LIST_END

BEGIN
	 0.005831814933,	 0.3375754423
	 0.005864938544,	 0.3409303098
	 0.005898070486,	 0.3442849026
	 0.005931208715,	 0.3476392227
	 0.006907111011,	 0.4468980615
	 0.007810051722,	 0.5418928264
	 0.008663060309,	 0.6367560983
	 0.009461946065,	 0.7315223405
	 0.01141226776,	 0.9914063612
	 0.01260838966,	 1.171302137
	 0.01372030457,	 1.351110665
	 0.01477212768,	 1.530850518
	 0.0164743845,	 1.838496514
	 0.01883864882,	 2.294759366
	 0.02169922333,	 2.886222589
	 0.02508563999,	 3.63688763
	 0.02913476626,	 4.598343848
	 0.0338143705,	 5.784379665
	 0.0391613242,	 7.223360982
	 0.04543074826,	 9.007251873
	 0.05295250059,	 11.26344241
	 0.06199023875,	 14.11371699
	 0.07278699509,	 17.68289671
	 0.08568208752,	 22.1363931
	 0.1011622063,	 27.70334809
	 0.1198503606,	 34.67912522
	 0.1424975835,	 43.42605922
	 0.1700193696,	 54.38939043
	 0.203571484,	 68.12926649
	 0.2446395689,	 85.35941023
	 0.295140047,	 106.9898486
	 0.3129422562,	 114.7024298
END
BEGIN
	 47.610825935016727 ,	 -0.65406379561508032 
	 47.608963690621934 ,	 -0.6505667945987047 
	 47.607110317813813 ,	 -0.64713960102122259 
	 47.605265696359425 ,	 -0.64377990222207471 
	 47.554257101738102 ,	 -0.56664033686131354 
	 47.511545987158463 ,	 -0.51649952860480464 
	 47.474650127248935 ,	 -0.47770063715025585 
	 47.443152545614403 ,	 -0.44552668032458848 
	 47.37908688783871 ,	 -0.37737255156886268 
	 47.348515645987888 ,	 -0.34170855331676325 
	 47.32525436067305 ,	 -0.31263852583870921 
	 47.307029537421201 ,	 -0.28857131288549515 
	 47.283501133155895 ,	 -0.25578887685243612 
	 47.25929897036719 ,	 -0.22006537782930469 
	 47.238319376358753 ,	 -0.18722932283581933 
	 47.220756805423903 ,	 -0.1577644018596937 
	 47.206235375441899 ,	 -0.13111388111660005 
	 47.194915400526774 ,	 -0.10786296841392981 
	 47.186373919476857 ,	 -0.087734335765283847 
	 47.179980642167152 ,	 -0.069815287789342331 
	 47.175395338487839 ,	 -0.053557851191719186 
	 47.172480622132717 ,	 -0.038877687765409744 
	 47.171097406141833 ,	 -0.02575550514897984 
	 47.171086209071284 ,	 -0.014057419638160162 
	 47.172332955320449 ,	 -0.0035985536138250325 
	 47.174812483291738 ,	 0.0057796841700373186 
	 47.178630932661299 ,	 0.01419721178161075 
	 47.184108200146603 ,	 0.021755831391376067 
	 47.191932710262016 ,	 0.028554425758314857 
	 47.203407523156855 ,	 0.034690810877996324 
	 47.22089255312526 ,	 0.040259782498917172 
	 47.228038990344885 ,	 0.04187356104385935 
END
BEGIN
	 0.005831814933,	 0.3375754423
	 0.005864938544,	 0.3409303098
	 0.005898070486,	 0.3442849026
	 0.005931208715,	 0.3476392227
	 0.006907111011,	 0.4468980615
	 0.007810051722,	 0.5418928264
	 0.008663060309,	 0.6367560983
	 0.009461946065,	 0.7315223405
	 0.01141226776,	 0.9914063612
	 0.01260838966,	 1.171302137
	 0.01372030457,	 1.351110665
	 0.01477212768,	 1.530850518
	 0.0164743845,	 1.838496514
	 0.01883864882,	 2.294759366
	 0.02169922333,	 2.886222589
	 0.02508563999,	 3.63688763
	 0.02913476626,	 4.598343848
	 0.0338143705,	 5.784379665
	 0.0391613242,	 7.223360982
	 0.04543074826,	 9.007251873
	 0.05295250059,	 11.26344241
	 0.06199023875,	 14.11371699
	 0.07278699509,	 17.68289671
	 0.08568208752,	 22.1363931
	 0.1011622063,	 27.70334809
	 0.1198503606,	 34.67912522
	 0.1424975835,	 43.42605922
	 0.1700193696,	 54.38939043
	 0.203571484,	 68.12926649
	 0.2446395689,	 85.35941023
	 0.295140047,	 106.9898486
	 0.3129422562,	 114.7024298
END
BEGIN
	 0.00132310385690425 ,	 7.34310748188943e-010 
	 0.00132992089234697 ,	 7.34238699842001e-010 
	 0.00133673983249757 ,	 7.34167047208468e-010 
	 0.00134356016063531 ,	 7.34095785015202e-010 
	 0.00154405657968749 ,	 7.32144738454015e-010 
	 0.00172790695699137 ,	 7.30533417827949e-010 
